(1787136891.056369) can0 12A66903#54C544800801
(1787136891.125275) can0 12A63982#54CD250008012285
(1787136891.125276) can0 12A63984#010A1873645F7866
(1787136891.125276) can0 12A63988#5F6E616976655F4C
(1787136891.125277) can0 12A6398C#305F73325F723438
(1787136891.125280) can0 12A63990#3030701A40326331
(1787136891.125280) can0 12A63994#6661373961623237
(1787136891.125280) can0 12A63998#3939643266643166
(1787136891.125281) can0 12A6399C#3261306666333563
(1787136891.126526) can0 12A63980#3666333639643863
(1787136891.126527) can0 12A63984#6437363235623864
(1787136891.126527) can0 12A63988#3633366339353238
(1787136891.126527) can0 12A6398C#3034343634316136
(1787136891.130402) can0 12A63990#323862613522272F
(1787136891.130402) can0 12A63994#686F6D652F726F6F
(1787136891.130403) can0 12A63998#742F73645F78665F
(1787136891.130403) can0 12A6399C#6E616976655F4C30
(1787136891.130407) can0 12A63980#5F73325F72343830
(1787136891.130407) can0 12A63984#30702E62696E2285
(1787136891.130408) can0 12A63988#010A1873645F7866
(1787136891.130408) can0 12A6398C#5F6E616976655F4C
(1787136891.131527) can0 12A63990#305F73335F723438
(1787136891.131528) can0 12A63994#3030701A40326331
(1787136891.131528) can0 12A63998#6661373961623237
(1787136891.131528) can0 12A6399C#3939643266643166
(1787136891.135528) can0 12A63980#3261306666333563
(1787136891.135529) can0 12A63984#3666333639643863
(1787136891.135529) can0 12A63988#6437363235623864
(1787136891.135530) can0 12A6398C#3633366339353238
(1787136891.135533) can0 12A63990#3034343634316136
(1787136891.135534) can0 12A63994#323862613522272F
(1787136891.135534) can0 12A63998#686F6D652F726F6F
(1787136891.135534) can0 12A6399C#742F73645F78665F
(1787136891.136652) can0 12A63980#6E616976655F4C30
(1787136891.136652) can0 12A63984#5F73335F72343830
(1787136891.136653) can0 12A63989#30702E62696E
(1787136891.584994) can0 12A66922#54C544C00802121B
(1787136891.584995) can0 12A66924#73645F78665F6E61
(1787136891.585096) can0 12A66928#6976655F4C302D30
(1787136891.585236) can0 12A6692C#325F73315F723438
(1787136891.585237) can0 12A66930#303070322A2F686F
(1787136891.585374) can0 12A66934#6D652F726F6F742F
(1787136891.585375) can0 12A66938#73645F78665F6E61
(1787136891.585483) can0 12A6693C#6976655F4C302E30
(1787136891.585484) can0 12A66920#325F73315F723438
(1787136891.585607) can0 12A66924#3030702E62696E38
(1787136891.585608) can0 12A66928#B12A400750808010
(1787136891.585733) can0 12A6692C#5A40326331666137
(1787136891.585745) can0 12A66930#3961623237393964
(1787136891.585846) can0 12A66934#3266643166326130
(1787136891.585847) can0 12A66938#6666333563366633
(1787136891.585971) can0 12A6693C#3639643863643736
(1787136891.585972) can0 12A66920#3235623864363336
(1787136891.586088) can0 12A66924#6339353238303434
(1787136891.586213) can0 12A66928#3634316136323862
(1787136891.586213) can0 12A6692C#61358801B4039001
(1787136891.586355) can0 12A66930#80029801C08DB701
(1787136891.590230) can0 12A66935#A001AC02
(1787136891.592280) can0 12A639A2#54CCBB4153565551
(1787136891.592281) can0 12A639A4#0100000000010000
(1787136891.592281) can0 12A639A8#0010000000000000
(1787136891.592282) can0 12A639AD#00000000996C59FF
(1787136892.018464) can0 12A66942#54C6D2C153565552
(1787136892.018466) can0 12A66944#0100000000000400
(1787136892.018583) can0 12A66948#0010000040000000
(1787136892.018585) can0 12A6694D#83CBE283
(1787136892.445371) can0 12A66962#54C6D2C100000000
(1787136892.445497) can0 12A66964#7335B3DF532F8D5D
(1787136892.445499) can0 12A66968#7D6BDC23CB8FFBE7
(1787136892.445584) can0 12A6696C#31C76E729C32A1A5
(1787136892.445586) can0 12A66970#C9A9617C5622B4B5
(1787136892.445747) can0 12A66974#A740C24203768E07
(1787136892.445750) can0 12A66978#F631C0F2AC4F4F33
(1787136892.445868) can0 12A6697C#146D2B530EDFFB5F
(1787136892.445991) can0 12A66960#937DB5DC57E8519E
(1787136892.445993) can0 12A66964#BC49FC89A87EA6AD
(1787136892.446111) can0 12A66968#0F9DFC217AA75450
(1787136892.446242) can0 12A6696C#BCDA333092BCEBB8
(1787136892.446244) can0 12A66970#FD5238E6E4A52481
(1787136892.446362) can0 12A66974#058A26C4E911E269
(1787136892.446364) can0 12A66978#2842CEA373FA6983
(1787136892.446491) can0 12A6697C#C53ACBDCF732F1E9
(1787136892.446493) can0 12A66960#9CEE839504A0A54B
(1787136892.446612) can0 12A66964#EA2835DC27903AB4
(1787136892.446614) can0 12A66968#FACE6C8A474D44F0
(1787136892.446740) can0 12A6696C#9674437CBD03DEAF
(1787136892.446742) can0 12A66970#0C6648DAF9BA0CDF
(1787136892.450744) can0 12A66974#72133F7E1AA108FB
(1787136892.450746) can0 12A66978#0BAA999A9F3CACB2
(1787136892.450863) can0 12A6697C#55FCCF97BDFF7EF4
(1787136892.450865) can0 12A66960#FE79212079489D05
(1787136892.450989) can0 12A66964#654C8817D7460D7C
(1787136892.450991) can0 12A66969#A49B15EB
(1787136892.877739) can0 12A66902#54C6D2C1C8000000
(1787136892.877741) can0 12A66904#861B16D9E35CC261
(1787136892.877742) can0 12A66908#0C49585972E7D95C
(1787136892.877837) can0 12A6690C#83BF226E8C6049C8
(1787136892.877838) can0 12A66910#B45722FB2C26FB27
(1787136892.877984) can0 12A66914#1C712E5DAE8B88BA
(1787136892.878108) can0 12A66918#1950C773967B3A35
(1787136892.878233) can0 12A6691C#7CF94EE751F05985
(1787136892.878235) can0 12A66900#B52D307981765E4D
(1787136892.878358) can0 12A66904#79CC85B94FD89EA1
(1787136892.878360) can0 12A66908#EE0C29B27A08CDE5
(1787136892.878482) can0 12A6690C#D267FEED5393D87D
(1787136892.878608) can0 12A66910#69A6DDDFC49AD098
(1787136892.878610) can0 12A66914#6058F08B3A358081
(1787136892.878611) can0 12A66918#513BFA6F7747B6DF
(1787136892.878732) can0 12A6691C#0DAE48096F8C3068
(1787136892.878734) can0 12A66900#45A6E5D779248B8C
(1787136892.878857) can0 12A66904#A9029A941E07211B
(1787136892.878859) can0 12A66908#C8C7DCDFD865EEA5
(1787136892.878987) can0 12A6690C#7B8D796CF7305899
(1787136892.878988) can0 12A66910#7A9103329ACA3AF7
(1787136892.882990) can0 12A66914#43A07949D6EBC3D1
(1787136892.882992) can0 12A66918#175735E8E677B33E
(1787136892.883109) can0 12A6691C#71E4C45AD3A30292
(1787136892.883235) can0 12A66900#445408D3E344D67C
(1787136892.883237) can0 12A66904#0EEB255ADBA699C3
(1787136892.883360) can0 12A66909#F9DC7FAC
(1787136893.309990) can0 12A66922#54C6D2C190010000
(1787136893.309993) can0 12A66924#081F5791760AF95E
(1787136893.309994) can0 12A66928#59D089E985B5453E
(1787136893.310089) can0 12A6692C#4627FB537C76F08E
(1787136893.310231) can0 12A66930#DB7B6EC93D2E7445
(1787136893.310233) can0 12A66934#4FAF2A23C28329D3
(1787136893.310356) can0 12A66938#FCF7D5698D696A65
(1787136893.310359) can0 12A6693C#3C94BB050FDE294D
(1787136893.310478) can0 12A66920#0FF113A386E2F809
(1787136893.310480) can0 12A66924#A90D961D7A4F8D75
(1787136893.310604) can0 12A66928#2145C949EC333BA3
(1787136893.310606) can0 12A6692C#9B9C8A796E05C43E
(1787136893.310729) can0 12A66930#D573CF61EE5D51A8
(1787136893.310730) can0 12A66934#D6CDFB6EEEA6B89E
(1787136893.310853) can0 12A66938#3C4A173D2493F8F7
(1787136893.310855) can0 12A6693C#4263436F41F79455
(1787136893.310978) can0 12A66920#B74EC65DF138C197
(1787136893.311103) can0 12A66924#09B70C0F0F34014D
(1787136893.311105) can0 12A66928#CB721633B956212D
(1787136893.311232) can0 12A6692C#FE906E3C02990A0C
(1787136893.311234) can0 12A66930#4680187EF7F1BDEB
(1787136893.315200) can0 12A66934#2CB3CD2ACF979064
(1787136893.315354) can0 12A66938#21D1A73FE7C19EBA
(1787136893.315356) can0 12A6693C#A768C40A9D3B0180
(1787136893.315357) can0 12A66920#418298FE1450B51B
(1787136893.315478) can0 12A66924#3D82982F09C50915
(1787136893.315480) can0 12A66929#709EFCDA
(1787136893.742230) can0 12A66942#54C6D2C158020000
(1787136893.742232) can0 12A66944#D85772CCD96DC38F
(1787136893.742361) can0 12A66948#D3B8F70A5442144D
(1787136893.742363) can0 12A6694C#FEFB47098802B361
(1787136893.742448) can0 12A66950#AAC69C92838C161F
(1787136893.742450) can0 12A66954#4B16FACBABFD16AC
(1787136893.742601) can0 12A66958#8787D358C92FD2E4
(1787136893.742603) can0 12A6695C#F3568AFE18074B29
(1787136893.742724) can0 12A66940#A0A9CD71A6BB149D
(1787136893.742849) can0 12A66944#0BE832B95B13DAD0
(1787136893.742852) can0 12A66948#6B8B9B8C9685EF5B
(1787136893.742975) can0 12A6694C#53CD4FD665431191
(1787136893.742977) can0 12A66950#52F40A4E3DE8D77A
(1787136893.742978) can0 12A66954#FCABC511ECDD6B6A
(1787136893.743227) can0 12A66958#38B8077B55021563
(1787136893.743349) can0 12A6695C#DCCD5E35C9D9A409
(1787136893.743350) can0 12A66940#1ACEE083C7FCF111
(1787136893.743473) can0 12A66944#C616CAB0E2D7F56D
(1787136893.743475) can0 12A66948#C857F2416CDFC251
(1787136893.743605) can0 12A6694C#60C32CB71E4BB3D1
(1787136893.743607) can0 12A66950#D9AA6084415B5E8E
(1787136893.747448) can0 12A66954#209AEC389C8B51AF
(1787136893.747450) can0 12A66958#88572EE936F8B888
(1787136893.747560) can0 12A6695C#24F2B211E300B2C0
(1787136893.747561) can0 12A66940#EA88CEB5FBA40D46
(1787136893.747685) can0 12A66944#4BEBD83913CAB8EB
(1787136893.747686) can0 12A66949#FB1F681C
(1787136894.174476) can0 12A66962#54C6D2C120030000
(1787136894.174478) can0 12A66964#E84F67C604800B61
(1787136894.174479) can0 12A66968#7D83FA59D2524272
(1787136894.174575) can0 12A6696C#09966A52D40C7BA4
(1787136894.174576) can0 12A66970#25D8430706CEC86D
(1787136894.174721) can0 12A66974#9DC01C853CCFD7B4
(1787136894.174847) can0 12A66978#2A211135D7E4E7C2
(1787136894.174849) can0 12A6697C#A63C05D7E6CE47A0
(1787136894.174970) can0 12A66960#808CA560FB57F386
(1787136894.174972) can0 12A66964#DD48A473F17CB7BA
(1787136894.175099) can0 12A66968#92BC565AE46D9B5E
(1787136894.175102) can0 12A6696C#4AF31262AAB7BE8A
(1787136894.175219) can0 12A66970#FC5D1282135FBBD3
(1787136894.175221) can0 12A66974#55E1BF9C38E95FEF
(1787136894.175345) can0 12A66978#08B20EE3C6EA861B
(1787136894.175347) can0 12A6697C#7C5510FF87F806A9
(1787136894.175470) can0 12A66960#70F158957826FB4E
(1787136894.175472) can0 12A66964#262FF493AD872EAA
(1787136894.175596) can0 12A66968#4C3A0F3504EE558D
(1787136894.175598) can0 12A6696C#910B45FF65660398
(1787136894.175723) can0 12A66970#F307B9633C5935CF
(1787136894.179726) can0 12A66974#23EDAC0A5C0269CB
(1787136894.179729) can0 12A66978#A233542878CC135B
(1787136894.179847) can0 12A6697C#1432E8D571020766
(1787136894.179849) can0 12A66960#5BF5F3D6A47E86A6
(1787136894.179972) can0 12A66964#5A55007674F91004
(1787136894.179974) can0 12A66969#686856D7
(1787136894.606724) can0 12A66902#54C6D2C1E8030000
(1787136894.606727) can0 12A66904#B8B3D3CC880A6053
(1787136894.606728) can0 12A66908#BC896D52D74DC802
(1787136894.606824) can0 12A6690C#E0C2A12AEF9789ED
(1787136894.606969) can0 12A66910#177EC46D5A5835E8
(1787136894.606971) can0 12A66914#A347F8F834B5CE26
(1787136894.606972) can0 12A66918#3771FD0FC1E3D2FE
(1787136894.607063) can0 12A6691C#EF5A44797F71A1C7
(1787136894.607220) can0 12A66900#B7B6B9F6E2A50ED8
(1787136894.607222) can0 12A66904#72B509E5C55BACDC
(1787136894.607341) can0 12A66908#01E9513AEE93C142
(1787136894.607343) can0 12A6690C#A9BD6CD10833F833
(1787136894.607466) can0 12A66910#5BB16233CB49B88B
(1787136894.607468) can0 12A66914#EAC8627B368E6DB1
(1787136894.607591) can0 12A66918#994344FEFCD74344
(1787136894.607593) can0 12A6691C#48457207F10CC43C
(1787136894.607715) can0 12A66900#912B989C974FAB86
(1787136894.607717) can0 12A66904#0EC54519B5C26F71
(1787136894.607841) can0 12A66908#EEDAC7DDFD6322F3
(1787136894.607843) can0 12A6690C#7CBF59F4039C39A0
(1787136894.607945) can0 12A66910#763ED6C9D409328B
(1787136894.611931) can0 12A66914#10ED1E2A677B481D
(1787136894.611932) can0 12A66918#BA1B9764058615DF
(1787136894.612090) can0 12A6691C#2451FD7E16E69B31
(1787136894.612193) can0 12A66900#038FDFFB160D0E2E
(1787136894.612194) can0 12A66904#38323316A8B37E45
(1787136894.612324) can0 12A66909#F1A4534D
(1787136895.038969) can0 12A66922#54C6D2C1B0040000
(1787136895.038971) can0 12A66924#DFFA78EFDCD21C65
(1787136895.038972) can0 12A66928#F699400FDC02954A
(1787136895.039067) can0 12A6692C#D765ED49DA28BE29
(1787136895.039218) can0 12A66930#333FC3A61B00D401
(1787136895.039221) can0 12A66934#7DEC04F5BC8F90BB
(1787136895.039344) can0 12A66938#95D05CD22756AF7A
(1787136895.039347) can0 12A6693C#177B6474176EC1D8
(1787136895.039466) can0 12A66920#0F546593E12B00FE
(1787136895.039468) can0 12A66924#69A8D9E744CBEA97
(1787136895.039587) can0 12A66928#056169C8C42D8CF0
(1787136895.039589) can0 12A6692C#0C31DD5A33CEA495
(1787136895.039716) can0 12A66930#F49A07C6B06F7DCC
(1787136895.039718) can0 12A66934#61BA9C8DD2CC03AE
(1787136895.039836) can0 12A66938#60BACACDC6C0E810
(1787136895.039838) can0 12A6693C#A88EE16C2DB5A024
(1787136895.039967) can0 12A66920#14399A3D4B8D6D95
(1787136895.039969) can0 12A66924#0F8566018834AC0A
(1787136895.040086) can0 12A66928#E5187EF5BC880369
(1787136895.040216) can0 12A6692C#2F357F77B2AA447D
(1787136895.040218) can0 12A66930#BA071319D0779703
(1787136895.044218) can0 12A66934#C7F247CCC313CE3C
(1787136895.044220) can0 12A66938#DF428FB02CA77852
(1787136895.044336) can0 12A6693C#C26A2C6C6421F89D
(1787136895.044338) can0 12A66920#B34B1F2A68D2EF9C
(1787136895.044461) can0 12A66924#873DC23113200F5A
(1787136895.044463) can0 12A66929#7CE4501C
(1787136895.471059) can0 12A66942#54C6D2C178050000
(1787136895.471061) can0 12A66944#D9895BF904118BDC
(1787136895.471169) can0 12A66948#B522587A1B7C24D2
(1787136895.471170) can0 12A6694C#C5A702893C1F4E60
(1787136895.471296) can0 12A66950#E29B1921B9D97CB0
(1787136895.471297) can0 12A66954#43554DB8790B0156
(1787136895.471420) can0 12A66958#E9BF4F65F608D98E
(1787136895.471421) can0 12A6695C#E0A2B4DE34A13E2A
(1787136895.471545) can0 12A66940#5A3E8BDB8CA7F519
(1787136895.471546) can0 12A66944#C62ECF33F06095B3
(1787136895.471670) can0 12A66948#2E387D232F08478C
(1787136895.471671) can0 12A6694C#3DD9273BEE3D79ED
(1787136895.471793) can0 12A66950#C80CD9066C96B27E
(1787136895.471795) can0 12A66954#1EC3B0FA4F383FDA
(1787136895.471918) can0 12A66958#5EBFEAC53F555E87
(1787136895.471920) can0 12A6695C#62DF49802195CB4F
(1787136895.472043) can0 12A66940#D6DDAE7E3FBA3AF1
(1787136895.472044) can0 12A66944#BA7F01F57EE7DA9C
(1787136895.472168) can0 12A66948#646AE074D8E88CFC
(1787136895.472299) can0 12A6694C#D5E46DDD094C5CF2
(1787136895.472301) can0 12A66950#9753129B494970C1
(1787136895.476339) can0 12A66954#B21512D049610AC2
(1787136895.476341) can0 12A66958#AFA54D8B2FD1BB06
(1787136895.476457) can0 12A6695C#3ECE5C06C1FFCA3C
(1787136895.476459) can0 12A66940#20C4B3A3D33E2350
(1787136895.476583) can0 12A66944#0AF0932EDC2BC540
(1787136895.476585) can0 12A66949#93E661A8
(1787136895.903213) can0 12A66962#54C6D2C140060000
(1787136895.903301) can0 12A66964#38668E63AA290CBA
(1787136895.903303) can0 12A66968#7FDAEB20A5994325
(1787136895.903455) can0 12A6696C#90BBA5B3A2BF7D27
(1787136895.903458) can0 12A66970#E49729EFF1E8453C
(1787136895.903459) can0 12A66974#62F6301FF697E5AE
(1787136895.903586) can0 12A66978#5FDC20554DC5B0ED
(1787136895.903588) can0 12A6697C#A826854FB76CD862
(1787136895.903702) can0 12A66960#17C66CB6B795958B
(1787136895.903705) can0 12A66964#15549BB600D49884
(1787136895.903828) can0 12A66968#F18C350D4ED93E17
(1787136895.903830) can0 12A6696C#E0780166BB81F668
(1787136895.903914) can0 12A66970#307F7C4DEF869DC4
(1787136895.904039) can0 12A66974#83AAC07350E6F318
(1787136895.904164) can0 12A66978#2772A8C3AB6A7CF4
(1787136895.904165) can0 12A6697C#A99695AB4251F665
(1787136895.904294) can0 12A66960#D708B25369DB84BC
(1787136895.904295) can0 12A66964#9EE984D376A65878
(1787136895.904428) can0 12A66968#16322E8C47720DC6
(1787136895.904429) can0 12A6696C#2966A9A8760FF057
(1787136895.904565) can0 12A66970#8756D6B5224F3430
(1787136895.908554) can0 12A66974#A329257B1C9ABCF1
(1787136895.908556) can0 12A66978#5956C60366AB1D0F
(1787136895.908557) can0 12A6697C#E571C7CE52E0C0CA
(1787136895.908665) can0 12A66960#08C3D3D3FA10305A
(1787136895.908666) can0 12A66964#088BEA6B6EF91F48
(1787136895.908789) can0 12A66969#DD5BCB7D
(1787136896.335458) can0 12A66902#54C6D2C108070000
(1787136896.335461) can0 12A66904#71EDAA3AE36B0ABE
(1787136896.335548) can0 12A66908#4039928FD71C3954
(1787136896.335550) can0 12A6690C#3D49D6000F633B99
(1787136896.335676) can0 12A66910#1EF0F328525886B1
(1787136896.335678) can0 12A66914#B47401C553E92081
(1787136896.335791) can0 12A66918#91FD485398361E65
(1787136896.335792) can0 12A6691C#3464A1F906C65C63
(1787136896.335950) can0 12A66900#03A47550A75E64A8
(1787136896.335952) can0 12A66904#CF8F0C2E79673E69
(1787136896.336049) can0 12A66908#7C0DE196848B2940
(1787136896.336051) can0 12A6690C#CBB90430E0557557
(1787136896.336175) can0 12A66910#00B2E9D70F2130FC
(1787136896.336176) can0 12A66914#A6BF1EAE03CB8EFB
(1787136896.336285) can0 12A66918#C4B2655EF8D297C1
(1787136896.336286) can0 12A6691C#0884A21F8034A26E
(1787136896.336410) can0 12A66900#E6471CAA760307E3
(1787136896.336411) can0 12A66904#2ADA9DB0A29BB7AD
(1787136896.336535) can0 12A66908#ED99B509E7C31225
(1787136896.336536) can0 12A6690C#728EEE612D7AF347
(1787136896.336662) can0 12A66910#664EB5B07006F8EB
(1787136896.340832) can0 12A66914#7233CC69E64BF261
(1787136896.340835) can0 12A66918#740B6E48FEC51CB0
(1787136896.340836) can0 12A6691C#E86A663D871ED827
(1787136896.340951) can0 12A66900#39A007E9C03CC35F
(1787136896.340953) can0 12A66904#19F8316CEE1C66CE
(1787136896.341076) can0 12A66909#0D6AE00C
(1787136896.767702) can0 12A66922#54C6D2C1D0070000
(1787136896.767704) can0 12A66924#F93113CFF5EC8095
(1787136896.767821) can0 12A66928#7F67EE9F4325F375
(1787136896.767823) can0 12A6692C#39732BC135240994
(1787136896.767947) can0 12A66930#2C06077FF8B2A991
(1787136896.767949) can0 12A66934#3B52C8F90D2896C9
(1787136896.768242) can0 12A66938#BC9B881436196260
(1787136896.768244) can0 12A6693D#655102F1
(1787136897.194822) can0 12A66942#54C4924000000000
(1787136897.194825) can0 12A66944#0100000088BE3704
(1787136897.194826) can0 12A66948#B93FFF70D19AB4F7
(1787136897.194920) can0 12A6694C#EF5581C9F32FF2EF
(1787136897.194922) can0 12A66950#C679FF4C2118DB64
(1787136897.195067) can0 12A66954#9F89BE636BBF382E
(1787136897.195191) can0 12A66958#2CF6C79E5C37AB12
(1787136897.195194) can0 12A6695C#9E3FB0F5460EDF18
(1787136897.195315) can0 12A66940#D64906C8DA81E0DA
(1787136897.195318) can0 12A66944#B336EF3AB77ADF68
(1787136897.195440) can0 12A66948#73ACD406D0544538
(1787136897.195442) can0 12A6694C#7E3949EAC2E13583
(1787136897.195565) can0 12A66950#E7540682F4242EF8
(1787136897.195567) can0 12A66954#299FD4E1CCA1CA05
(1787136897.195690) can0 12A66958#5250DC652895A91F
(1787136897.195692) can0 12A6695C#D1F5A54BB2E2AE1A
(1787136897.195815) can0 12A66940#6E9272523F3A0B14
(1787136897.195817) can0 12A66944#522E9E21D51160F6
(1787136897.195940) can0 12A66948#C233FE159263DE82
(1787136897.195942) can0 12A6694C#3E073BFC560BADE3
(1787136897.196069) can0 12A66950#0559B82BD6192B63
(1787136897.200075) can0 12A66954#869E498AEA1EEBFC
(1787136897.200199) can0 12A66958#3F24497F5E444C27
(1787136897.200201) can0 12A6695C#4593CA2269ACD554
(1787136897.200319) can0 12A66940#FF245CDFBEA9CEF5
(1787136897.200321) can0 12A66944#26EC2765BF9FBF88
(1787136897.200442) can0 12A66948#D1AB78668BB6DDEC
(1787136897.200566) can0 12A6694C#EBB95E32517670ED
(1787136897.200567) can0 12A66950#8E09AC5AE8E498D0
(1787136897.200695) can0 12A66954#0542F9A39E6B097D
(1787136897.200697) can0 12A66958#EABEA5E2B1C8ECA6
(1787136897.200820) can0 12A6695C#0F0A41610A2C18E6
(1787136897.200940) can0 12A66941#9D2E4049
(1787136897.627076) can0 12A66962#54C49240F8000000
(1787136897.627161) can0 12A66964#010000004E93B460
(1787136897.627163) can0 12A66968#6D729A0BCFBD55BB
(1787136897.627305) can0 12A6696C#FD4C3497C3B394BD
(1787136897.627307) can0 12A66970#C7BF6FFB25070C5F
(1787136897.627404) can0 12A66974#B17FA4FC01EBBB65
(1787136897.627405) can0 12A66978#82C74A781227D70E
(1787136897.627561) can0 12A6697C#39F0BC0754A3BB63
(1787136897.627691) can0 12A66960#6B87135141DC8AAE
(1787136897.627693) can0 12A66964#1D51AFB6E28A89F6
(1787136897.627812) can0 12A66968#6923495B206A03F4
(1787136897.627814) can0 12A6696C#30CEAB50EB1A35C1
(1787136897.627942) can0 12A66970#357D282349BE60A0
(1787136897.627944) can0 12A66974#0221C2530BF85FB1
(1787136897.628153) can0 12A66978#21B03C0B0E74BFC9
(1787136897.628154) can0 12A6697C#B88CA477F1F36B5B
(1787136897.628278) can0 12A66960#684353819C04D24D
(1787136897.628279) can0 12A66964#899AC81DC87565AE
(1787136897.628398) can0 12A66968#7EBB0E69FBF7908E
(1787136897.628399) can0 12A6696C#253F08B1A45215BD
(1787136897.628541) can0 12A66970#F35A614B738E7007
(1787136897.632437) can0 12A66974#70567BC8FE949C0A
(1787136897.632439) can0 12A66978#0750477A18B143A1
(1787136897.632440) can0 12A6697C#D80A773F00D82F30
(1787136897.632537) can0 12A66960#408A79EA94F76E3E
(1787136897.632539) can0 12A66964#16A9AD092697DCCB
(1787136897.632661) can0 12A66968#298CC56FAD166BE9
(1787136897.632662) can0 12A6696C#98C66D547A557202
(1787136897.632772) can0 12A66970#3671CE33ECB1A455
(1787136897.632773) can0 12A66974#EC48E2470E267ABA
(1787136897.632941) can0 12A66978#A67FB3DF09382824
(1787136897.632943) can0 12A6697C#92151920949FE90B
(1787136897.633061) can0 12A66961#45FA467C
(1787136898.059441) can0 12A66902#54C49240F0010000
(1787136898.059443) can0 12A66904#01000000962B7347
(1787136898.059533) can0 12A66908#FAB998F30448DCCD
(1787136898.059682) can0 12A6690C#D214D1A6E8741C00
(1787136898.059685) can0 12A66910#8066B8098E9BDF03
(1787136898.059686) can0 12A66914#735018E76855C73A
(1787136898.059932) can0 12A66918#0B76A613D465CD7B
(1787136898.059934) can0 12A6691C#F4476E921AA14A04
(1787136898.059935) can0 12A66900#40E6CA4F09C28D76
(1787136898.060057) can0 12A66904#9193E3458B21B56C
(1787136898.060181) can0 12A66908#EFB12BA231052169
(1787136898.060183) can0 12A6690C#AD10E178DBF1AB5A
(1787136898.060282) can0 12A66910#44B496B7C1585096
(1787136898.060283) can0 12A66914#F78A01A9492CB880
(1787136898.060397) can0 12A66918#35DA6FA378FEB3D4
(1787136898.060398) can0 12A6691C#68154279275C0A5C
(1787136898.060518) can0 12A66900#1DEBC826B775011C
(1787136898.060519) can0 12A66904#3741213872C04C3C
(1787136898.060643) can0 12A66908#600BC0D267DA5A67
(1787136898.060644) can0 12A6690C#5438AC9141C0E350
(1787136898.060782) can0 12A66910#A72B3A9D8D6108E5
(1787136898.064826) can0 12A66914#AE779A75826C3F03
(1787136898.064829) can0 12A66918#6593FFB54CEA7CF1
(1787136898.064918) can0 12A6691C#97742B8D0DE809C0
(1787136898.064919) can0 12A66900#2DCBBF8AE0362527
(1787136898.065058) can0 12A66904#10D821E49E9E2346
(1787136898.065183) can0 12A66908#4E3A35E4DF05AB1A
(1787136898.065185) can0 12A6690C#2B07E801D5147CD2
(1787136898.065306) can0 12A66910#D513227D0742248B
(1787136898.065394) can0 12A66914#F0AD0FEEFEBD9D8E
(1787136898.065395) can0 12A66918#3922A5A2A69DACCC
(1787136898.065518) can0 12A6691C#5DB15B1FCEBDED2F
(1787136898.065519) can0 12A66901#3188E51B
(1787136898.491812) can0 12A66922#54C49240E8020000
(1787136898.491815) can0 12A66924#010000001B0BABF5
(1787136898.491929) can0 12A66928#AF43D9982CB52A6E
(1787136898.491932) can0 12A6692C#9434F77D5BBA265D
(1787136898.492015) can0 12A66930#2E2F4C2275F91507
(1787136898.492177) can0 12A66934#CB1C8867980525D2
(1787136898.492180) can0 12A66938#49C5FEAA5D7C25A9
(1787136898.492303) can0 12A6693C#0F33C68E6FDB349D
(1787136898.492305) can0 12A66920#A98907F04780F9F1
(1787136898.492427) can0 12A66924#3E36207854FEBF15
(1787136898.492430) can0 12A66928#02A960502F9F0F5D
(1787136898.492533) can0 12A6692C#97005B1989C7D473
(1787136898.492535) can0 12A66930#87645250BDD59C3B
(1787136898.492639) can0 12A66934#4237496C52885E60
(1787136898.492640) can0 12A66938#438E0945E40D550A
(1787136898.492780) can0 12A6693C#61EF55CACF98D5BB
(1787136898.492781) can0 12A66920#70A13090146D3B8E
(1787136898.492889) can0 12A66924#7102E7990DC46F88
(1787136898.492890) can0 12A66928#28C239BBA87C4770
(1787136898.493014) can0 12A6692C#63B2F69E4937CB81
(1787136898.493178) can0 12A66930#B0BFD34232ED7BD9
(1787136898.493180) can0 12A66934#C8C9500CDDD3CA33
(1787136898.493305) can0 12A66938#7B75A4C7985CC103
(1787136898.497159) can0 12A6693C#E7D09073A81931DD
(1787136898.497303) can0 12A66920#74B9E3E47D34BD55
(1787136898.497305) can0 12A66924#B84BA58304B9770F
(1787136898.497306) can0 12A66928#A9BD2CB623622721
(1787136898.497403) can0 12A6692C#F500D8739A4E9ACA
(1787136898.497530) can0 12A66930#5CFCA176B01FC70A
(1787136898.497531) can0 12A66934#5FBADFEBEE4DFFCA
(1787136898.497532) can0 12A66938#392850C2C8F1571A
(1787136898.497654) can0 12A6693C#5208BE1461B00B0F
(1787136898.497655) can0 12A66921#A761FD50
(1787136898.924184) can0 12A66942#54C49240E0030000
(1787136898.924187) can0 12A66944#01000000300C8A4B
(1787136898.924281) can0 12A66948#1D374F7557EF676E
(1787136898.924426) can0 12A6694C#C3DF06B71A926C77
(1787136898.924429) can0 12A66950#1503DADC4DB27955
(1787136898.924430) can0 12A66954#758C4B8BB1BEDE6A
(1787136898.924678) can0 12A66958#F8F7E57B427B26C4
(1787136898.924680) can0 12A6695C#0628FA1A9FAF899C
(1787136898.924681) can0 12A66940#FE021BD17B7B283C
(1787136898.924803) can0 12A66944#0469F0B1BFDC6AB3
(1787136898.924806) can0 12A66948#9E4EB4A76C793D70
(1787136898.924923) can0 12A6694C#F137023D713475B3
(1787136898.925048) can0 12A66950#A9ADA1EBCC8757F1
(1787136898.925173) can0 12A66954#A1FD20B08122D777
(1787136898.925175) can0 12A66958#F6FD81827CB1EB62
(1787136898.925299) can0 12A6695C#177D3FB9034FCA97
(1787136898.925301) can0 12A66940#110CF454144C6933
(1787136898.925424) can0 12A66944#8004777BC710F7FD
(1787136898.925425) can0 12A66948#436A7AB7C6A8C178
(1787136898.925552) can0 12A6694C#1CF30C19DE6198FA
(1787136898.925554) can0 12A66950#C50C37A5D62FAC7D
(1787136898.929529) can0 12A66954#3E9B781627BB01F0
(1787136898.929531) can0 12A66958#F61D0F6C7A02C700
(1787136898.929639) can0 12A6695C#AF23B7ADC2A55C1D
(1787136898.929640) can0 12A66940#CF99CF2E2F3D84B0
(1787136898.929767) can0 12A66944#961DE755B04F4313
(1787136898.929768) can0 12A66948#389B1C52EF346D43
(1787136898.929886) can0 12A6694C#AE6A5F1D57C2C09D
(1787136898.929887) can0 12A66950#922A2ED65C496CE2
(1787136898.930057) can0 12A66954#9F276ED68BD28D7D
(1787136898.930059) can0 12A66958#EA18512C37EF7764
(1787136898.930173) can0 12A6695C#08C0BD8213A611CC
(1787136898.930175) can0 12A66941#076D91BB
(1787136899.356516) can0 12A66962#54C49240D8040000
(1787136899.356632) can0 12A66964#01000000EAF2AC77
(1787136899.356634) can0 12A66968#239FBBD37ADDE3A5
(1787136899.356776) can0 12A6696C#0098E6A4C9FCE324
(1787136899.356777) can0 12A66970#0A36AEDEB1BA889D
(1787136899.356920) can0 12A66974#61A0A2247A1955F6
(1787136899.356922) can0 12A66978#03E9498832661F0F
(1787136899.357044) can0 12A6697C#80FDB787038AEDD2
(1787136899.357170) can0 12A66960#C802C57C18EFED81
(1787136899.357172) can0 12A66964#9C81D3694AF4C275
(1787136899.357294) can0 12A66968#E37A202B50BFBC5B
(1787136899.357420) can0 12A6696C#6F94E78A3AAC63C0
(1787136899.357422) can0 12A66970#3917ABECBA918040
(1787136899.357511) can0 12A66974#23865E3F811EE274
(1787136899.357512) can0 12A66978#E38C015376338B7A
(1787136899.357631) can0 12A6697C#F13EE3BD60FE2858
(1787136899.357632) can0 12A66960#808FA396AAA63C61
(1787136899.357756) can0 12A66964#1CD6556F4EEBAA0A
(1787136899.357757) can0 12A66968#7F6F5112F4449AEC
(1787136899.357884) can0 12A6696C#20EE7ACA3A069541
(1787136899.357885) can0 12A66970#FBA59416FE56CF68
(1787136899.361924) can0 12A66974#56F1C6A982A165C8
(1787136899.361926) can0 12A66978#19F8CBF76DFBAD22
(1787136899.361927) can0 12A6697C#0BA476E896610170
(1787136899.362044) can0 12A66960#5319B9DAE271F610
(1787136899.362169) can0 12A66964#0A5C2CE4492AC99A
(1787136899.362294) can0 12A66968#547C0A148F9D4889
(1787136899.362296) can0 12A6696C#2F887EC6567F9654
(1787136899.362423) can0 12A66970#EA6882F752A5D938
(1787136899.362424) can0 12A66974#CA21891437B44B54
(1787136899.362544) can0 12A66978#3355149AF3EEBA32
(1787136899.362546) can0 12A6697C#1A8BC40D2467A178
(1787136899.362630) can0 12A66961#B1F27D68
(1787136899.789025) can0 12A66902#54C49240D0050000
(1787136899.789028) can0 12A66904#010000000DA5C0D6
(1787136899.789166) can0 12A66908#5A31138640CAAE81
(1787136899.789169) can0 12A6690C#8521C65AEF4A6414
(1787136899.789289) can0 12A66910#D7E584F3F71E01B7
(1787136899.789416) can0 12A66914#DD6EA9563AE3E610
(1787136899.789418) can0 12A66918#2CD03CEF6F8EDE33
(1787136899.789541) can0 12A6691C#277BE42203192122
(1787136899.789543) can0 12A66900#D37FE5F2F2AEBBDC
(1787136899.789665) can0 12A66904#F0C536F960228987
(1787136899.789667) can0 12A66908#11DAFC4CB78C743D
(1787136899.789751) can0 12A6690C#7C626623F4F08320
(1787136899.789876) can0 12A66910#B77C36590A2491D7
(1787136899.789877) can0 12A66914#4BC29269D00ACE37
(1787136899.790001) can0 12A66918#7102EC752AAC5DED
(1787136899.790002) can0 12A6691C#C6792CA90AD62EC7
(1787136899.790127) can0 12A66900#F0B8BA61221DA4BC
(1787136899.790127) can0 12A66904#68D6E71B47E8BA1D
(1787136899.790290) can0 12A66908#EC72F1FE39009A40
(1787136899.790418) can0 12A6690C#BD7E31ACD7A1B5F6
(1787136899.790420) can0 12A66910#F73CB5CBC31CB0B4
(1787136899.794295) can0 12A66914#B111D6F83487E5F4
(1787136899.794297) can0 12A66918#3892D56DB466D8E0
(1787136899.794298) can0 12A6691C#8AE94F7FACB56280
(1787136899.794415) can0 12A66900#209B7E567BE784AB
(1787136899.794416) can0 12A66904#84BCDAED36D6C826
(1787136899.794539) can0 12A66908#ADCFFA2D3A30E2FE
(1787136899.794664) can0 12A6690C#F950A571B2095240
(1787136899.794666) can0 12A66910#96C10E4E82C0DAC2
(1787136899.794752) can0 12A66914#07E1C6BBFA172873
(1787136899.794753) can0 12A66918#B091D42F8DB81704
(1787136899.794877) can0 12A6691C#D6663F497115512C
(1787136899.794878) can0 12A66901#F3F1CE1E
(1787136900.221260) can0 12A66922#54C49240C8060000
(1787136900.221263) can0 12A66924#010000005C7D58EE
(1787136900.221377) can0 12A66928#CD782942664A51B7
(1787136900.221379) can0 12A6692C#B458DE02452E591A
(1787136900.221526) can0 12A66930#0B7F7C9FB6B749CC
(1787136900.221528) can0 12A66934#FD16AFC5E9B29A1D
(1787136900.221661) can0 12A66938#E3F5A4C364ABBBC5
(1787136900.221664) can0 12A6693C#DCE8FB5B09099CBB
(1787136900.221786) can0 12A66920#A53554EBD792FBD7
(1787136900.221788) can0 12A66924#2D975BFE803D669A
(1787136900.221912) can0 12A66928#6ED1E53582B935F8
(1787136900.221914) can0 12A6692C#AC1243D9CDB60F7F
(1787136900.222165) can0 12A66930#D3E7E17A827068E3
(1787136900.222167) can0 12A66934#01411E0CF2A2DDDE
(1787136900.222286) can0 12A66938#6B264648A17F8FCF
(1787136900.222288) can0 12A6693C#ECE91A1BB0F0FCC7
(1787136900.222378) can0 12A66920#A48B3AD66BB16B44
(1787136900.222379) can0 12A66924#61405C4F9ECE28D5
(1787136900.222498) can0 12A66928#2F661C7A904FA4D0
(1787136900.222499) can0 12A6692C#33F48727D66A7ADB
(1787136900.222625) can0 12A66930#071D223FE62D07E0
(1787136900.226524) can0 12A66934#39FAD74ED9CAD135
(1787136900.226526) can0 12A66938#7AE37837360D6864
(1787136900.226661) can0 12A6693C#88B151B74F43DD89
(1787136900.226664) can0 12A66920#32CBE263CCC43111
(1787136900.226786) can0 12A66924#F8EBFB7823D6A54F
(1787136900.226788) can0 12A66928#BE56E9D8603DBAF2
(1787136900.226911) can0 12A6692C#B2446914CD808849
(1787136900.226913) can0 12A66930#0827AF6A041524C1
(1787136900.227036) can0 12A66934#3038F519BA9FA7B3
(1787136900.227038) can0 12A66938#CC411C66038B0A64
(1787136900.227162) can0 12A6693C#36BEE35D47D2D085
(1787136900.227164) can0 12A66921#E864F794
(1787136900.653504) can0 12A66942#54C49240C0070000
(1787136900.653644) can0 12A66944#01000000F7A849A5
(1787136900.653646) can0 12A66948#364F36ADB7D1BC05
(1787136900.653785) can0 12A6694C#2DD84D6381185657
(1787136900.653788) can0 12A66950#0AD4DC9511C107AC
(1787136900.653789) can0 12A66954#1043064E531801E6
(1787136900.654033) can0 12A66958#5CD08A0399A7434D
(1787136900.654036) can0 12A6695C#79F2F08D28F2B749
(1787136900.654157) can0 12A66940#DA60F15B9254193C
(1787136900.654159) can0 12A66944#CF27531136B7B4A0
(1787136900.654282) can0 12A66948#0BC8D8222555287A
(1787136900.654285) can0 12A6694C#D5F55129BE5322CE
(1787136900.654407) can0 12A66950#58B415D20242C81E
(1787136900.654410) can0 12A66954#E8D34154288A5065
(1787136900.654532) can0 12A66958#69B6E66DBB1F682D
(1787136900.654534) can0 12A6695C#9CA555090B981562
(1787136900.654618) can0 12A66940#C3E4996FDC221F18
(1787136900.654743) can0 12A66944#8EB0E8E6028C7A80
(1787136900.654744) can0 12A66948#0636F103FFCF6D6B
(1787136900.654872) can0 12A6694C#22166E8AD2B06FD0
(1787136900.654873) can0 12A66950#5D2A30F1B121EECE
(1787136900.658933) can0 12A66954#D25CB69A9E40F721
(1787136900.658936) can0 12A66958#36259DF9E00E18FB
(1787136900.658938) can0 12A6695C#F81C316A7135A348
(1787136900.659011) can0 12A66940#43C4E1125E4FC190
(1787136900.659161) can0 12A66944#4D834B41DC37CBF9
(1787136900.659164) can0 12A66948#3AB5BC66779EA41A
(1787136900.659291) can0 12A6694C#04347876C5BD2EFA
(1787136900.659293) can0 12A66950#5CE4B4CBD5FBF913
(1787136900.659410) can0 12A66954#6E904D053822D666
(1787136900.659412) can0 12A66958#0C10ABD36C225989
(1787136900.659534) can0 12A6695C#2109A276227745EF
(1787136900.659536) can0 12A66941#9EC19753
(1787136901.085746) can0 12A66962#54C49240B8080000
(1787136901.085902) can0 12A66964#01000000A5E158AD
(1787136901.085904) can0 12A66968#A4EFD6BA7C3F0594
(1787136901.085905) can0 12A6696C#1A7987684AEC78E6
(1787136901.086025) can0 12A66970#057F840B3F513A58
(1787136901.086151) can0 12A66974#8EA8EC18269A6CF8
(1787136901.086153) can0 12A66978#8966951A6CFEBB7C
(1787136901.086275) can0 12A6697C#3FD5D3DA909C13A7
(1787136901.086277) can0 12A66960#E1E3B6BFC087E137
(1787136901.086400) can0 12A66964#72E9714D63AB8D7C
(1787136901.086525) can0 12A66968#1DFF4459478D5E1A
(1787136901.086527) can0 12A6696C#30193D01A14820EF
(1787136901.086614) can0 12A66970#159E176DF1557CFE
(1787136901.086615) can0 12A66974#E75F55DD1B9F3C2F
(1787136901.086738) can0 12A66978#FC22D7B0D743C230
(1787136901.086739) can0 12A6697C#D450D43195B29729
(1787136901.086863) can0 12A66960#D5822196DF5491AA
(1787136901.086864) can0 12A66964#F20235FB3ECD5390
(1787136901.086988) can0 12A66968#1D95A9A6FBE52A73
(1787136901.086989) can0 12A6696C#F1832F3310DA0334
(1787136901.087153) can0 12A66970#FA0201C17506A51F
(1787136901.091155) can0 12A66974#778F08CFAEAEBD73
(1787136901.091157) can0 12A66978#578E6379D3076CBA
(1787136901.091274) can0 12A6697C#792DAE3C1BB66D87
(1787136901.091276) can0 12A66960#D44D73F82D5D98A2
(1787136901.091401) can0 12A66964#474819345589F9DE
(1787136901.091403) can0 12A66968#51BC92C75A375756
(1787136901.091538) can0 12A6696C#AE3A9F6165F64D1F
(1787136901.091540) can0 12A66970#53D3FF9F84030799
(1787136901.091627) can0 12A66974#A2892557AFC1DB34
(1787136901.091753) can0 12A66978#A4010490D2C6BE6B
(1787136901.091754) can0 12A6697C#5378544D1D267155
(1787136901.091863) can0 12A66961#088A381E
(1787136901.518123) can0 12A66902#54C49240B0090000
(1787136901.518125) can0 12A66904#0100000000B4E727
(1787136901.518281) can0 12A66908#A48B90766A507F43
(1787136901.518283) can0 12A6690C#C85885718B2815DE
(1787136901.518398) can0 12A66910#81B422E1194B941A
(1787136901.518400) can0 12A66914#6F4414B97F37E7B9
(1787136901.518527) can0 12A66918#6C5F7B40C7C3BF8F
(1787136901.518529) can0 12A6691C#4FCE56B3BEB87DC5
(1787136901.518653) can0 12A66900#CFEA2F607C825451
(1787136901.518655) can0 12A66904#B271E9CEC002A2D5
(1787136901.518778) can0 12A66908#8824F7333357C02F
(1787136901.518780) can0 12A6690C#50E16FE7006FDD77
(1787136901.518781) can0 12A66910#9BDD46CDB66DA376
(1787136901.518902) can0 12A66914#73C4D90A5523B541
(1787136901.518904) can0 12A66918#A683E4FC8EB71A82
(1787136901.519027) can0 12A6691C#6A50B21508856698
(1787136901.519152) can0 12A66900#12EF8E27E70188D5
(1787136901.519154) can0 12A66904#1947E029A14FAF34
(1787136901.519277) can0 12A66908#57F321BAB611D9C8
(1787136901.519279) can0 12A6690C#21097ADEFD97CE55
(1787136901.519411) can0 12A66910#61E5623DDA212372
(1787136901.523496) can0 12A66914#BE6A7F91C438D078
(1787136901.523498) can0 12A66918#5D8AFE6A00B67631
(1787136901.523613) can0 12A6691C#611DCDA83D47EBBD
(1787136901.523614) can0 12A66900#A50C6DEDA12E7B72
(1787136901.523738) can0 12A66904#CF278009F8792270
(1787136901.523739) can0 12A66908#B2B38320A87C6A7B
(1787136901.523861) can0 12A6690C#C3023FC9601F78F7
(1787136901.523862) can0 12A66910#730F122D99EF5DFD
(1787136901.523987) can0 12A66914#A8BEB3CA0984E8EF
(1787136901.523988) can0 12A66918#C14D2D72B6AAC1FB
(1787136901.524154) can0 12A6691C#20327C99BC46384C
(1787136901.524156) can0 12A66901#F9290822
(1787136901.950493) can0 12A66922#54C49240A80A0000
(1787136901.950611) can0 12A66924#0100000033E5A47C
(1787136901.950612) can0 12A66928#92C728A67BD51FFA
(1787136901.950772) can0 12A6692C#B5004B23105A14FA
(1787136901.950774) can0 12A66930#F5B10569380FBB26
(1787136901.950897) can0 12A66934#A713594D72DEC775
(1787136901.950899) can0 12A66938#86F2932C6A976B66
(1787136901.950900) can0 12A6693C#CA01368CE70505E3
(1787136901.951019) can0 12A66920#51C46C1A9559E32E
(1787136901.951144) can0 12A66924#3CF78B1BF2A75CBF
(1787136901.951146) can0 12A66928#B41E7F683042805B
(1787136901.951269) can0 12A6692C#D51AD307BC3DD536
(1787136901.951271) can0 12A66930#65C09F086DA14768
(1787136901.951394) can0 12A66934#5E7A4206A8A2ADE6
(1787136901.951396) can0 12A66938#4EC061945E00E3EA
(1787136901.951481) can0 12A6693C#2C352288EBA53B2A
(1787136901.951482) can0 12A66920#4976D13C0BA4F977
(1787136901.951605) can0 12A66924#82FAA3F8BA55C08D
(1787136901.951730) can0 12A66928#DE4D4652FFAC4086
(1787136901.951731) can0 12A6692C#AD125428531DDD28
(1787136901.951858) can0 12A66930#E3032E30A40F2C2A
(1787136901.955873) can0 12A66934#82808BD0CDA0F759
(1787136901.955875) can0 12A66938#F0F1AAF9D7633084
(1787136901.955877) can0 12A6693C#E84307A962687A0B
(1787136901.955994) can0 12A66920#3CCDAF10FEF8F671
(1787136901.956144) can0 12A66924#A01B322751631644
(1787136901.956269) can0 12A66928#1714F8F1132D9E84
(1787136901.956271) can0 12A6692C#F2216E9E0590B440
(1787136901.956394) can0 12A66930#ED07C16A6EB5AF96
(1787136901.956396) can0 12A66934#627EBD8D5D4B2BCC
(1787136901.956495) can0 12A66938#9EF95B2BE14AADAA
(1787136901.956496) can0 12A6693C#40A754D4FB92AD73
(1787136901.956604) can0 12A66921#EF0B0FE1
(1787136902.382862) can0 12A66942#54C49240A00B0000
(1787136902.382864) can0 12A66944#010000003E6DCF9C
(1787136902.383018) can0 12A66948#6741D5FCD7519368
(1787136902.383021) can0 12A6694C#D761EC56EA05F1AF
(1787136902.383145) can0 12A66950#08179B7C166E6753
(1787136902.383147) can0 12A66954#292397FDDD94C73E
(1787136902.383268) can0 12A66958#3087358471C085A2
(1787136902.383270) can0 12A6695C#480DC3C5EF1AD9B8
(1787136902.383396) can0 12A66940#54C3006E7CF2687B
(1787136902.383398) can0 12A66944#71A7FD575C83F0E0
(1787136902.383515) can0 12A66948#E79F5E84400195A5
(1787136902.383517) can0 12A6694C#413F0D6E175D00E9
(1787136902.383646) can0 12A66950#0824DD5F1BA2B177
(1787136902.383648) can0 12A66954#C23ACD59D7AE68C7
(1787136902.383726) can0 12A66958#D3CE85DE9CAA3556
(1787136902.383728) can0 12A6695C#2C6DA7F3E28D0FD0
(1787136902.383851) can0 12A66940#47BCFE70B1CFC94D
(1787136902.383976) can0 12A66944#2C5D9F3A1FA125AE
(1787136902.383977) can0 12A66948#53D4AD29CF1014CB
(1787136902.384105) can0 12A6694C#2FBA89CF6D2E7CBE
(1787136902.384106) can0 12A66950#756D92306089BAD5
(1787136902.388111) can0 12A66954#85C855E86990829C
(1787136902.388274) can0 12A66958#D2BEA5F6906A2FB6
(1787136902.388277) can0 12A6695C#513382A70400BE6D
(1787136902.388397) can0 12A66940#D91FA39A363F233D
(1787136902.388399) can0 12A66944#B85A6736BB1A7367
(1787136902.388491) can0 12A66948#8DACCB040C365D3D
(1787136902.388493) can0 12A6694C#F137C7144A60A779
(1787136902.388620) can0 12A66950#5937A8BB9438953E
(1787136902.388741) can0 12A66954#AA3B027F9A31A787
(1787136902.388742) can0 12A66958#517893904084F717
(1787136902.388890) can0 12A6695C#DE463F851DBA1559
(1787136902.388892) can0 12A66941#A60E7B9F
(1787136902.815233) can0 12A66962#54C49240980C0000
(1787136902.815235) can0 12A66964#01000000E80E925D
(1787136902.815389) can0 12A66968#D1FB77C31C300A1E
(1787136902.815391) can0 12A6696C#A0F3D5764F742C87
(1787136902.815514) can0 12A66970#29881ACA129F7877
(1787136902.815517) can0 12A66974#55D3AD1DA61645C9
(1787136902.815636) can0 12A66978#6F83E4B8D01CDDBD
(1787136902.815761) can0 12A6697C#1D6EF48C5FAE9CAD
(1787136902.815763) can0 12A66960#7C369A5AD4CFFEBF
(1787136902.815886) can0 12A66964#6353CE9B793F528C
(1787136902.815888) can0 12A66968#B5A074ADCA5ABB28
(1787136902.816010) can0 12A6696C#642AF2DF7A27B097
(1787136902.816097) can0 12A66970#570998BC278000D4
(1787136902.816222) can0 12A66974#37C9A974F6D5512B
(1787136902.816223) can0 12A66978#E5919F6D2A458B84
(1787136902.816347) can0 12A6697C#4431CD6276CBBBD7
(1787136902.816348) can0 12A66960#C754BF2F17F423C3
(1787136902.816476) can0 12A66964#C5DF06E38A571BE9
(1787136902.816477) can0 12A66968#24A7AAF754C126A0
(1787136902.816617) can0 12A6696C#0987B6EDDAB4CFCB
(1787136902.816725) can0 12A66970#C88B8F635576B103
(1787136902.816726) can0 12A66974#08FE15E3BAD0960C
(1787136902.820616) can0 12A66978#F2C0F322A170C110
(1787136902.820618) can0 12A6697C#3CAA4480B95E7372
(1787136902.820619) can0 12A66960#DEC9F5ABD688E789
(1787136902.820736) can0 12A66964#B3BAEF8182F472F6
(1787136902.820737) can0 12A66968#C78A854A5E27641B
(1787136902.820885) can0 12A6696C#F5EB7DCD19FF47D2
(1787136902.820887) can0 12A66970#7C3492A0F36BBA09
(1787136902.821011) can0 12A66974#63737D94E0CD600B
(1787136902.821098) can0 12A66978#C326AE67443BAE33
(1787136902.821098) can0 12A6697C#53C7597320B1626B
(1787136902.821222) can0 12A66961#035563AF
(1787136903.247611) can0 12A66902#54C49240900D0000
(1787136903.247613) can0 12A66904#01000000F1BB6CAA
(1787136903.247760) can0 12A66908#CCD00886F5BF0D43
(1787136903.247763) can0 12A6690C#20EDD79DF47BD6E1
(1787136903.247764) can0 12A66910#53276082A9514BF8
(1787136903.247892) can0 12A66914#62E99794ADF57C2E
(1787136903.248009) can0 12A66918#C5E51EC031B86837
(1787136903.248132) can0 12A6691C#2767FCCD5913E6D4
(1787136903.248134) can0 12A66900#35CD66E6A14112DF
(1787136903.248256) can0 12A66904#90312DDE4D1DFBC9
(1787136903.248259) can0 12A66908#9EC2242CF4ED2765
(1787136903.248343) can0 12A6690C#3616E278E21FFB65
(1787136903.248344) can0 12A66910#CDC7ADF4E809AC51
(1787136903.248468) can0 12A66914#277E26DEF0B3AD68
(1787136903.248469) can0 12A66918#16286F9A3E2EAE21
(1787136903.248593) can0 12A6691C#4A64AEC0BDB66BA5
(1787136903.248594) can0 12A66900#28D1BAFE6C3189CF
(1787136903.248718) can0 12A66904#B35DDB4B82CF2D6D
(1787136903.248857) can0 12A66908#353D96C82EA0C038
(1787136903.248858) can0 12A6690C#4D3BCE2335B4B901
(1787136903.248984) can0 12A66910#B417292B02B64D5B
(1787136903.252866) can0 12A66914#7010E89E3FB3A900
(1787136903.252868) can0 12A66918#BAD5B393D344F808
(1787136903.253006) can0 12A6691C#7C930E5571B33FA8
(1787136903.253009) can0 12A66900#9B3284BC92C7152F
(1787136903.253132) can0 12A66904#2A17A250147D46E2
(1787136903.253134) can0 12A66908#59CCB0F45792F64F
(1787136903.253218) can0 12A6690C#5879257E0DF4A5E1
(1787136903.253219) can0 12A66910#EEDFEC1BFDD5B624
(1787136903.253343) can0 12A66914#5E6F1A5FBFB73E4C
(1787136903.253344) can0 12A66918#3EE577120B87FB43
(1787136903.253506) can0 12A6691C#2F7FBCE5B97C0AE6
(1787136903.253631) can0 12A66901#B54B6D3D
(1787136903.679848) can0 12A66922#54C49240880E0000
(1787136903.680007) can0 12A66924#010000001875E486
(1787136903.680009) can0 12A66928#83266B35021D2E2C
(1787136903.680135) can0 12A6692C#8EDE2DF3AED12029
(1787136903.680137) can0 12A66930#39880F605A2ECECD
(1787136903.680258) can0 12A66934#1CCA79E7681D8B91
(1787136903.680260) can0 12A66938#BB4D183F48A6F56C
(1787136903.680378) can0 12A6693C#B17E39EAF0F3790E
(1787136903.680380) can0 12A66920#D06CA4028654D95A
(1787136903.680478) can0 12A66924#0DDDDBF78A036D17
(1787136903.680480) can0 12A66928#BBA263469734694D
(1787136903.680602) can0 12A6692C#4BE62C33046A3590
(1787136903.680604) can0 12A66930#EA9023054D033769
(1787136903.680714) can0 12A66934#1C72FFC30506719C
(1787136903.680715) can0 12A66938#2DF0DE45C65A6515
(1787136903.680839) can0 12A6693C#7F45CE6A8A59C4A1
(1787136903.680840) can0 12A66920#7562B04DE6F2832B
(1787136903.680963) can0 12A66924#B341A81C919371F9
(1787136903.681089) can0 12A66928#4640C6E93C5D96B3
(1787136903.681090) can0 12A6692C#63BD52211A074480
(1787136903.681256) can0 12A66930#707F518034CB07B0
(1787136903.685092) can0 12A66934#1A2EF32CC148A8E9
(1787136903.685256) can0 12A66938#97407B2BD9B712D1
(1787136903.685258) can0 12A6693C#3379CBDD9DA0C6B5
(1787136903.685377) can0 12A66920#82FD48DB6E5F7385
(1787136903.685379) can0 12A66924#328FBB43AFB28903
(1787136903.685503) can0 12A66928#6700223BB51B25C2
(1787136903.685505) can0 12A6692C#744979B18217CBDD
(1787136903.685626) can0 12A66930#865563752F61271E
(1787136903.685628) can0 12A66934#E11C4F7A4C85863F
(1787136903.685753) can0 12A66938#B1AD2CDA08F2F9B3
(1787136903.685754) can0 12A6693C#6970DD105E087EE6
(1787136903.685852) can0 12A66921#4AFEE829
(1787136904.112239) can0 12A66942#54C49240800F0000
(1787136904.112241) can0 12A66944#0100000062BE833F
(1787136904.112352) can0 12A66948#197C212CEBA9EDEE
(1787136904.112354) can0 12A6694C#E94A6845062B9318
(1787136904.112475) can0 12A66950#1AD6FAC57F162271
(1787136904.112477) can0 12A66954#EE3CBB7BDFFC74D9
(1787136904.112599) can0 12A66958#30D9A68AC47E1CB8
(1787136904.112710) can0 12A6695C#F09C3EFED4ABE495
(1787136904.112711) can0 12A66940#7AB3A0E75AB88546
(1787136904.112874) can0 12A66944#AD942480C15A1E82
(1787136904.112876) can0 12A66948#FE65D74C32451616
(1787136904.112877) can0 12A6694C#C2C4A8ACCE05AA8E
(1787136904.112959) can0 12A66950#CEF6BAC0C90D5ACE
(1787136904.113085) can0 12A66954#25C47A7817CD2093
(1787136904.113086) can0 12A66958#CA946E07E5A74B53
(1787136904.113209) can0 12A6695C#D86A7850B4D2A0DF
(1787136904.113211) can0 12A66940#84941550BAC20ED7
(1787136904.113334) can0 12A66944#63271570AC082A42
(1787136904.113335) can0 12A66948#7D9119F0CFAE3910
(1787136904.113507) can0 12A6694C#EA67F5992EB3BFC6
(1787136904.113509) can0 12A66950#8A8CE8D4FC6C8B8D
(1787136904.117490) can0 12A66954#F87AC9D07B84A0D7
(1787136904.117493) can0 12A66958#582E13FD01E320D6
(1787136904.117626) can0 12A6695C#143A2C39F747BB1C
(1787136904.117628) can0 12A66940#977B32565FE7DF9A
(1787136904.117751) can0 12A66944#33B4D76A913E3862
(1787136904.117754) can0 12A66948#D4C671F6A8AC486A
(1787136904.117875) can0 12A6694C#C404510A2EE65AA5
(1787136904.117877) can0 12A66950#91098D288F69D9CF
(1787136904.118005) can0 12A66954#19D1A589B7F60E07
(1787136904.118008) can0 12A66958#35664BD59D74657A
(1787136904.118087) can0 12A6695C#F05C84ABDEBEAB96
(1787136904.118088) can0 12A66941#02C33FC1
(1787136904.544468) can0 12A66962#54C4924078100000
(1787136904.544598) can0 12A66964#01000000F22B2597
(1787136904.544600) can0 12A66968#8CC5CBDA0343A6C8
(1787136904.544722) can0 12A6696C#3A0740BAD9C55502
(1787136904.544723) can0 12A66970#48F69EC62A23EF36
(1787136904.544725) can0 12A66974#74BED4D6E1D847FA
(1787136904.545035) can0 12A66978#7109DFFB987E40D4
(1787136904.545038) can0 12A6697C#6F06485F52B8DD70
(1787136904.545039) can0 12A66960#8369034317484AC4
(1787136904.545248) can0 12A66964#23EAE6000D29FB94
(1787136904.545251) can0 12A66968#DA62E8F82952CE3F
(1787136904.545380) can0 12A6696C#62ABA443A283DE94
(1787136904.545383) can0 12A66970#16BB9CDB5E057355
(1787136904.545500) can0 12A66974#D0667FB2DCDDDDE2
(1787136904.545502) can0 12A66978#405976A44819B59A
(1787136904.545622) can0 12A6697C#F818C54E0C5A7972
(1787136904.545623) can0 12A66960#7F6D7F75B222907A
(1787136904.545744) can0 12A66964#8292C49F3C5DD4A3
(1787136904.545746) can0 12A66968#47828D8290AB3D53
(1787136904.545835) can0 12A6696C#21C871E6DA04FAD3
(1787136904.545836) can0 12A66970#77431C06D0FE2431
(1787136904.549833) can0 12A66974#5E16AF1840A82FB3
(1787136904.549834) can0 12A66978#1EF766B4FA068569
(1787136904.549835) can0 12A6697C#74D446ABA9C2E318
(1787136904.549955) can0 12A66960#DE5C3E7217CCACF8
(1787136904.550081) can0 12A66964#AE9EAB13472A6562
(1787136904.550081) can0 12A66968#EB2F8A8FB3FC1086
(1787136904.550244) can0 12A6696C#647A82A50FA4DE1B
(1787136904.550369) can0 12A66970#7BE6F06D1A2ED064
(1787136904.550371) can0 12A66974#F2B4C0B9622B87BA
(1787136904.550494) can0 12A66978#8113650E278DF76C
(1787136904.550495) can0 12A6697C#C7DFA7C7851F097C
(1787136904.550619) can0 12A66961#B1B9B62C
(1787136904.976838) can0 12A66902#54C4924070110000
(1787136904.976841) can0 12A66904#010000000B4C202E
(1787136904.976993) can0 12A66908#BA0120DA4F76BB75
(1787136904.976996) can0 12A6690C#5CDFDCBBDF558911
(1787136904.977116) can0 12A66910#24CE0AD777111778
(1787136904.977118) can0 12A66914#E604575DDF0C4277
(1787136904.977240) can0 12A66918#92C690B8E7A358BA
(1787136904.977242) can0 12A6691C#DDFE3EBEB5C46CB9
(1787136904.977365) can0 12A66900#90ABBB02019916D8
(1787136904.977367) can0 12A66904#5DA155BA492FEA75
(1787136904.977451) can0 12A66908#42B951D720B8ADF4
(1787136904.977577) can0 12A6690C#4663D77C8E5B736C
(1787136904.977578) can0 12A66910#D1736B23233EECEC
(1787136904.977701) can0 12A66914#1B4BEF179D6413DD
(1787136904.977702) can0 12A66918#1C26B44A17C0985E
(1787136904.977868) can0 12A6691C#F1562FB1142CA952
(1787136904.977870) can0 12A66900#CCE2804D69305B7F
(1787136904.977951) can0 12A66904#8AC06BD4808F0514
(1787136904.978076) can0 12A66908#47165BBC08BF13EF
(1787136904.978076) can0 12A6690C#3C5A2CCA4A6BDC62
(1787136904.978220) can0 12A66910#8A92FBA8941E0F6C
(1787136904.982077) can0 12A66914#09A0454B07724A65
(1787136904.982240) can0 12A66918#8BA78D46ECDFF727
(1787136904.982242) can0 12A6691C#1DDBAD19B729BE47
(1787136904.982243) can0 12A66900#CF819575521EF2E6
(1787136904.982365) can0 12A66904#2CAD72419963B29D
(1787136904.982367) can0 12A66908#5F3236F65E78EAC5
(1787136904.982492) can0 12A6690C#F65D95B69C13330A
(1787136904.982494) can0 12A66910#CC976E9F96AA28CF
(1787136904.982615) can0 12A66914#1EECB2E2AF702A82
(1787136904.982616) can0 12A66918#1CA0AE7BA5E4A833
(1787136904.982740) can0 12A6691C#67051DBF11B55523
(1787136904.982741) can0 12A66901#F0992B07
(1787136905.409210) can0 12A66922#54C4924068120000
(1787136905.409212) can0 12A66924#010000004EA73C50
(1787136905.409364) can0 12A66928#7D96C076E7D47171
(1787136905.409366) can0 12A6692C#1E82BC2F10911D2F
(1787136905.409367) can0 12A66930#091C0D0BD08510BA
(1787136905.409457) can0 12A66934#0D59F3D8A77AE7DF
(1787136905.409620) can0 12A66938#A748664BA469C8B9
(1787136905.409623) can0 12A6693C#145DB6970D7954F9
(1787136905.409713) can0 12A66920#2CE4E43E634D2A15
(1787136905.409714) can0 12A66924#97174D93D6ED8EF9
(1787136905.409863) can0 12A66928#D3045570D73D197C
(1787136905.409865) can0 12A6692C#A1C23F560BCE3D7E
(1787136905.409947) can0 12A66930#076E2F1BB153EC6B
(1787136905.410074) can0 12A66934#AB351AD1F778E497
(1787136905.410076) can0 12A66938#0E0F91FE1F1A38FB
(1787136905.410203) can0 12A6693C#E733265CF741D006
(1787136905.410205) can0 12A66920#4F9ABFB62515320E
(1787136905.410325) can0 12A66924#893E6ABC50F2AB44
(1787136905.410326) can0 12A66928#AA39FB9C72C8FFF5
(1787136905.410502) can0 12A6692C#69CFE828ACA7A694
(1787136905.410504) can0 12A66930#66393EFA2155333C
(1787136905.414478) can0 12A66934#786B03A73B67D32B
(1787136905.414480) can0 12A66938#EF96B6D9E8C2207D
(1787136905.414614) can0 12A6693C#A0CFE5975B139931
(1787136905.414618) can0 12A66920#AFDCDF8C0E68581B
(1787136905.414738) can0 12A66924#9A2635BB0010F936
(1787136905.414740) can0 12A66928#E9DCFAED12F7A872
(1787136905.414865) can0 12A6692C#F654DB583489BF9B
(1787136905.414867) can0 12A66930#D598424D768E3EEC
(1787136905.414988) can0 12A66934#95C16323978A85C7
(1787136905.414990) can0 12A66938#3B952B84D8DDE53A
(1787136905.415075) can0 12A6693C#59528B2A95669841
(1787136905.415076) can0 12A66921#2EE0FC6A
(1787136905.841454) can0 12A66942#54C4924060130000
(1787136905.841590) can0 12A66944#01000000438FFB80
(1787136905.841592) can0 12A66948#6B62705613F21791
(1787136905.841593) can0 12A6694C#BB57F3FCC2D3AB63
(1787136905.841732) can0 12A66950#D73C8737FE714B94
(1787136905.841735) can0 12A66954#5E8751DA7F4F13EE
(1787136905.841982) can0 12A66958#C1049D7C8C48A502
(1787136905.841984) can0 12A6695C#A514BF3CA8DB1C79
(1787136905.842106) can0 12A66940#72B7DEFC91BAF910
(1787136905.842108) can0 12A66944#53786551E9A819A7
(1787136905.842231) can0 12A66948#0342D7C70308B25E
(1787136905.842233) can0 12A6694C#7BE37826692C56E5
(1787136905.842356) can0 12A66950#F9659B4BA1B9BE9D
(1787136905.842358) can0 12A66954#6837FAB682826231
(1787136905.842443) can0 12A66958#92780E2F76E61372
(1787136905.842444) can0 12A6695C#9C93B7851F6B16FB
(1787136905.842572) can0 12A66940#12F494E023ECDB5C
(1787136905.842573) can0 12A66944#838400AA1BD0E6EF
(1787136905.842693) can0 12A66948#F552E0B6A3629D3F
(1787136905.842694) can0 12A6694C#AB157E963DCAF23A
(1787136905.842860) can0 12A66950#B563DA2D9ED3E831
(1787136905.846856) can0 12A66954#0C9E51FD2516AC3E
(1787136905.846858) can0 12A66958#5F51BE513C528628
(1787136905.846859) can0 12A6695C#BA64740071733748
(1787136905.846981) can0 12A66940#7259D41E7506FB47
(1787136905.847106) can0 12A66944#F33FDA829D3F8645
(1787136905.847231) can0 12A66948#60049D85BDEC7067
(1787136905.847233) can0 12A6694C#2539129A96AE2E4C
(1787136905.847357) can0 12A66950#EB4D0AEB24229B3E
(1787136905.847359) can0 12A66954#1860DAC0B1D078B1
(1787136905.847360) can0 12A66958#EF7E2AE7B58A066A
(1787136905.847442) can0 12A6695C#930A1C2A60A02F25
(1787136905.847567) can0 12A66941#C2FB7B45
(1787136906.273837) can0 12A66962#54C4924058140000
(1787136906.273839) can0 12A66964#010000008B004D38
(1787136906.273980) can0 12A66968#3B3BCAC58120DBD8
(1787136906.273982) can0 12A6696C#175EDAC6BD56596E
(1787136906.274104) can0 12A66970#35D6465B018CAD2E
(1787136906.274106) can0 12A66974#A2A4B0C7E65549A4
(1787136906.274229) can0 12A66978#28462C0BA2FFCE87
(1787136906.274231) can0 12A6697C#2DD69B0D138EE2E7
(1787136906.274353) can0 12A66960#07BA1E88E265AE26
(1787136906.274355) can0 12A66964#A9F04EFD06C59C9F
(1787136906.274477) can0 12A66968#0C3467126325E4EE
(1787136906.274480) can0 12A6696C#576255329DE4D200
(1787136906.274564) can0 12A66970#1FE1EC8F9113FB70
(1787136906.274565) can0 12A66974#556E36F20052FBED
(1787136906.274688) can0 12A66978#115B367B6F9CA75E
(1787136906.274689) can0 12A6697C#DC43468A586A176A
(1787136906.274814) can0 12A66960#FF1A27CA6EFDBF28
(1787136906.274815) can0 12A66964#AAC55A5E8A8439FB
(1787136906.274939) can0 12A66968#1DC48AA97C64190D
(1787136906.274939) can0 12A6696C#6D581B84DD4A8DC4
(1787136906.275091) can0 12A66970#2485D9B15FD94770
(1787136906.279075) can0 12A66974#21F08A230DCD1D1D
(1787136906.279233) can0 12A66978#DB17D371542A4DEF
(1787136906.279236) can0 12A6697C#0A81515BC950D6BF
(1787136906.279237) can0 12A66960#2886F4804D769101
(1787136906.279360) can0 12A66964#F9EDA89CD332F506
(1787136906.279361) can0 12A66968#8ADAA645F6572651
(1787136906.279478) can0 12A6696C#E42653967D4780C3
(1787136906.279480) can0 12A66970#A664BA946800B5E8
(1787136906.279603) can0 12A66974#C0E8326A3B200F25
(1787136906.279605) can0 12A66978#3FC6A503FA41FA22
(1787136906.279728) can0 12A6697C#17994F85D8CA1533
(1787136906.279729) can0 12A66961#962BCB02
(1787136906.706197) can0 12A66902#54C4924050150000
(1787136906.706199) can0 12A66904#01000000B1D7E1D9
(1787136906.706331) can0 12A66908#94C47C4471D2C9CD
(1787136906.706333) can0 12A6690C#0B9750FDE5BAD1F1
(1787136906.706478) can0 12A66910#EE6D08D312E9475B
(1787136906.706480) can0 12A66914#75332766F0A06B3D
(1787136906.706604) can0 12A66918#41F954248FAB7609
(1787136906.706606) can0 12A6691C#250A91B4E88F7C7D
(1787136906.706728) can0 12A66900#37C1575705F837F9
(1787136906.706730) can0 12A66904#B06C4D270C89109A
(1787136906.706854) can0 12A66908#A76D40587B67166D
(1787136906.706856) can0 12A6690C#C40796BE13552D3F
(1787136906.706977) can0 12A66910#D91CCD1D7AC63D03
(1787136906.707059) can0 12A66914#AB8939FDAABBB2E4
(1787136906.707184) can0 12A66918#A4C3C973B3AB0F73
(1787136906.707185) can0 12A6691C#036B4B162F9EA58A
(1787136906.707310) can0 12A66900#4A45EA4FAA4DD29B
(1787136906.707310) can0 12A66904#A84A1BBBC244801C
(1787136906.707434) can0 12A66908#99C3AB55AF4D3258
(1787136906.707435) can0 12A6690C#19FE5DBCCCFAA5D6
(1787136906.707563) can0 12A66910#51200CDE14DCDCCC
(1787136906.707564) can0 12A66914#2C8F6703456A75E3
(1787136906.711581) can0 12A66918#2E0EF9467DA4E225
(1787136906.711584) can0 12A6691C#17A49A4C464D2EA6
(1787136906.711726) can0 12A66900#BE3EC02EC94AA493
(1787136906.711728) can0 12A66904#068CA34D74995629
(1787136906.711850) can0 12A66908#F63706EF34092C06
(1787136906.711852) can0 12A6690C#4074FF7801F258C6
(1787136906.711976) can0 12A66910#79087E85F57B9B76
(1787136906.712099) can0 12A66914#29326D8748F7D706
(1787136906.712101) can0 12A66918#0F24D4FB78A89F05
(1787136906.712199) can0 12A6691C#D256EA9193D33286
(1787136906.712200) can0 12A66901#D76B4721
(1787136907.138464) can0 12A66922#54C4924048160000
(1787136907.138569) can0 12A66924#01000000111DC272
(1787136907.138570) can0 12A66928#49C670DFC36B640E
(1787136907.138705) can0 12A6692C#8F54F49E24653645
(1787136907.138706) can0 12A66930#3CD7239F6DFD5A08
(1787136907.138830) can0 12A66934#F61B5CF6F38FE85F
(1787136907.138831) can0 12A66938#3D178337CF1DB8B2
(1787136907.138926) can0 12A6693C#62A88EF251FE7EE5
(1787136907.139052) can0 12A66920#9608531796AC8AB0
(1787136907.139176) can0 12A66924#454741BD8BF93269
(1787136907.139176) can0 12A66928#1C0ED1D65A860C92
(1787136907.139317) can0 12A6692C#B6EA3378B36A1BF6
(1787136907.139318) can0 12A66930#2F77D36F530AD7B3
(1787136907.139426) can0 12A66934#F02ABA75710CA85D
(1787136907.139426) can0 12A66938#89DF52C5D41A7777
(1787136907.139550) can0 12A6693C#CC51CFD417056BA7
(1787136907.139551) can0 12A66920#65AB84DB39912AD0
(1787136907.139676) can0 12A66924#24FF96DF4849A5B5
(1787136907.139677) can0 12A66928#CF68A5756B86F0C9
(1787136907.139817) can0 12A6692C#4CBA19C90C0C5C48
(1787136907.139927) can0 12A66930#247DA5A9459C35D1
(1787136907.143551) can0 12A66934#0DD1A70CEFBBA5EA
(1787136907.143712) can0 12A66938#9CD7E29213CB25E8
(1787136907.143712) can0 12A6693C#D4A29209E296309A
(1787136907.143833) can0 12A66920#488F032A6BB3DA41
(1787136907.143834) can0 12A66924#98DA323CD2E13ECA
(1787136907.143955) can0 12A66928#CE45F24DDF935006
(1787136907.143956) can0 12A6692C#08D17EF8483E4A1E
(1787136907.144051) can0 12A66930#318F370821D4545C
(1787136907.144052) can0 12A66934#51A1354E7452E6FF
(1787136907.144181) can0 12A66938#735C58A9170B0118
(1787136907.144311) can0 12A6693C#957CB128F0D8B758
(1787136907.144311) can0 12A66921#E1A399AA
(1787136907.570561) can0 12A66942#54C4924040170000
(1787136907.570564) can0 12A66944#01000000343B7FAD
(1787136907.570721) can0 12A66948#C7589E91CE61E486
(1787136907.570724) can0 12A6694C#8DBC8A07214D1F42
(1787136907.570813) can0 12A66950#75C99E3B24C4BDEB
(1787136907.570815) can0 12A66954#8F5113AA0549F42F
(1787136907.570971) can0 12A66958#18D138D42518DC7F
(1787136907.571090) can0 12A6695C#BF2F2E827C1067BE
(1787136907.571093) can0 12A66940#87ABF90E8DCFC7A8
(1787136907.571220) can0 12A66944#9E88DABF5F58910F
(1787136907.571223) can0 12A66948#5DA00BF70A8F9779
(1787136907.571342) can0 12A6694C#856C34F9E2ADAAD1
(1787136907.571344) can0 12A66950#F78D341F947F1B24
(1787136907.571426) can0 12A66954#D5DBE0C08A8BF640
(1787136907.571551) can0 12A66958#5AEF6A4F5BD9CFF7
(1787136907.571552) can0 12A6695C#887BAAC25D58E24F
(1787136907.571676) can0 12A66940#4967EDE44FFBD643
(1787136907.571677) can0 12A66944#C326F474267D319B
(1787136907.571801) can0 12A66948#1640DFDFC496C168
(1787136907.571802) can0 12A6694C#44DE9EB0C2C525FA
(1787136907.571972) can0 12A66950#289F99CB823D7470
(1787136907.571974) can0 12A66954#04B9D277E0894EE0
(1787136907.575806) can0 12A66958#C14DD93A36E24B00
(1787136907.575969) can0 12A6695C#3C88E49E9C725A46
(1787136907.575972) can0 12A66940#55F820117E69A588
(1787136907.576089) can0 12A66944#33DFECD855DAC972
(1787136907.576090) can0 12A66948#FC06C458609FA0D8
(1787136907.576215) can0 12A6694C#35C9348713A9F4EB
(1787136907.576216) can0 12A66950#617B0B272DCC8223
(1787136907.576339) can0 12A66954#B49CD4AE4963ABE4
(1787136907.576440) can0 12A66958#37E4F5F9BD74DA0A
(1787136907.576441) can0 12A6695C#F47171E6A1860A15
(1787136907.576550) can0 12A66941#D5CA8A53
(1787136908.002952) can0 12A66962#54C4924038180000
(1787136908.002954) can0 12A66964#010000006AA528A4
(1787136908.003088) can0 12A66968#D170F661124AFA7D
(1787136908.003090) can0 12A6696C#A071A95917697100
(1787136908.003213) can0 12A66970#3A599F2FA694E119
(1787136908.003216) can0 12A66974#575845898CC080CC
(1787136908.003336) can0 12A66978#03487711D004FB5E
(1787136908.003339) can0 12A6697C#27F149D75C116172
(1787136908.003460) can0 12A66960#B896F51656167281
(1787136908.003463) can0 12A66964#1E16B1E70E6249EB
(1787136908.003561) can0 12A66968#D12B81171D7A4DE9
(1787136908.003562) can0 12A6696C#80D848B3570B803C
(1787136908.003672) can0 12A66970#BE0AD4D5BF7B1695
(1787136908.003673) can0 12A66974#6914994B2B2F8CCC
(1787136908.003797) can0 12A66978#B427DDAC9552EF29
(1787136908.003922) can0 12A6697C#0453FFFB2BEF4A7E
(1787136908.003922) can0 12A66960#475F0130AA02F550
(1787136908.004047) can0 12A66964#D9D27F914B1E068C
(1787136908.004048) can0 12A66968#C889D3F1BC8600DE
(1787136908.004191) can0 12A6696C#C8329A11220F5291
(1787136908.004192) can0 12A66970#758E9A7A0676DE8D
(1787136908.008188) can0 12A66974#AAAFD54ACBA13A43
(1787136908.008190) can0 12A66978#B2C7984FC2B534DD
(1787136908.008335) can0 12A6697C#70E3F073AAA9B351
(1787136908.008338) can0 12A66960#D4F5A3F9B9D584E6
(1787136908.008436) can0 12A66964#8D2A95162B1E2D88
(1787136908.008437) can0 12A66968#EFE0818F94559CF4
(1787136908.008562) can0 12A6696C#9795BE5FB2789334
(1787136908.008563) can0 12A66970#5EC42B4C53C6F0BB
(1787136908.008686) can0 12A66974#07CFCB510317305B
(1787136908.008687) can0 12A66978#EEE67E2710988EB7
(1787136908.008797) can0 12A6697C#2DC1BC9B92B77B06
(1787136908.008798) can0 12A66961#808A3ECA
(1787136908.435177) can0 12A66902#54C4924030190000
(1787136908.435340) can0 12A66904#010000006582915F
(1787136908.435342) can0 12A66908#FEBF05E483F07D57
(1787136908.435343) can0 12A6690C#77AD0BFC54D12041
(1787136908.435435) can0 12A66910#22CA27F8AED742BD
(1787136908.435437) can0 12A66914#67846EC9CEBCA3CA
(1787136908.435727) can0 12A66918#DAE942941BF6A4AF
(1787136908.435731) can0 12A6691C#661E457F0B108DE7
(1787136908.435732) can0 12A66900#AED688EF5F8D52E4
(1787136908.435793) can0 12A66904#6F3C815F5FE3914F
(1787136908.435794) can0 12A66908#CEA2A333FD74AE7C
(1787136908.435959) can0 12A6690C#36E2C5989A54874A
(1787136908.436085) can0 12A66910#F2F6E96E4B25EB38
(1787136908.436087) can0 12A66914#DB811CC8B4B71FFF
(1787136908.436208) can0 12A66918#CA028D79B882968B
(1787136908.436210) can0 12A6691C#A0F078493AEBCB33
(1787136908.436333) can0 12A66900#6619C92F22B75B31
(1787136908.436335) can0 12A66904#D49A3D89A00A9138
(1787136908.436417) can0 12A66908#F6F85E2D5EBE36AB
(1787136908.436547) can0 12A6690C#80A1B149BB03D57C
(1787136908.436549) can0 12A66910#767A8F19D32AD767
(1787136908.440569) can0 12A66914#F94227B70028F686
(1787136908.440572) can0 12A66918#0330BDF42725CB4B
(1787136908.440684) can0 12A6691C#E95E631B9A7E6FBB
(1787136908.440686) can0 12A66900#2AB153C96FAA0A56
(1787136908.440819) can0 12A66904#21F344B7B1C8CD86
(1787136908.440820) can0 12A66908#F725870CE153D653
(1787136908.440958) can0 12A6690C#2756CC32487F22A7
(1787136908.441059) can0 12A66910#AAF98E8381E4E88A
(1787136908.441060) can0 12A66914#BFC92B561D366F96
(1787136908.441168) can0 12A66918#8F71D09F3A5B3E8F
(1787136908.441169) can0 12A6691C#E173A2AF1E09E0A1
(1787136908.441292) can0 12A66901#D334F615
(1787136908.867550) can0 12A66922#54C49240281A0000
(1787136908.867676) can0 12A66924#01000000DE098796
(1787136908.867677) can0 12A66928#468EFE8BDB3681DB
(1787136908.867829) can0 12A6692C#4D97ECAF8ED3668A
(1787136908.867831) can0 12A66930#214BC5AD09D5336A
(1787136908.867832) can0 12A66934#11E8E0E707B62D60
(1787136908.868079) can0 12A66938#B7BA88D375551C2A
(1787136908.868081) can0 12A6693C#D1D9753E6B449A02
(1787136908.868202) can0 12A66920#9CE3E82715B21E19
(1787136908.868204) can0 12A66924#0D8193E61B302C70
(1787136908.868329) can0 12A66928#74D7F2A4E88EC491
(1787136908.868331) can0 12A6692C#5EACAC70C2C008D5
(1787136908.868414) can0 12A66930#9849CD26BD390060
(1787136908.868415) can0 12A66934#C4C5250ED6D7C222
(1787136908.868538) can0 12A66938#FD5A8BF1E320D2B6
(1787136908.868539) can0 12A6693C#A8ABCC5EAB2A30DC
(1787136908.868663) can0 12A66920#F70B7516A5CD1A37
(1787136908.868817) can0 12A66924#5C4AAA0324B665C9
(1787136908.868818) can0 12A66928#0E4133035DDE3B90
(1787136908.868955) can0 12A6692C#53CF2AA766ED627A
(1787136908.868957) can0 12A66930#F3D0B38BD847C535
(1787136908.872933) can0 12A66934#CB22A9A9BC517B2F
(1787136908.873076) can0 12A66938#88F62DA1768B5969
(1787136908.873078) can0 12A6693C#B54D5561B81C8806
(1787136908.873201) can0 12A66920#8F7EF75F57707E41
(1787136908.873203) can0 12A66924#B7A8CCB4403CC20F
(1787136908.873328) can0 12A66928#5019EEA518C7769F
(1787136908.873330) can0 12A6692C#A3FA16D7DC57BF9F
(1787136908.873331) can0 12A66930#D20DCFD74C9F1839
(1787136908.873413) can0 12A66934#ADD4332578E602CD
(1787136908.873538) can0 12A66938#7368191BEA25B784
(1787136908.873539) can0 12A6693C#6838AC3FE1BB309A
(1787136908.873662) can0 12A66921#95693AB9
(1787136909.299920) can0 12A66942#54C49240201B0000
(1787136909.300050) can0 12A66944#010000001EC267A5
(1787136909.300051) can0 12A66948#4CD90F2081D0D358
(1787136909.300177) can0 12A6694C#2568D6ECF9AD1824
(1787136909.300179) can0 12A66950#FB261EF0B8BC1661
(1787136909.300301) can0 12A66954#CF5FB51E96AEDA12
(1787136909.300302) can0 12A66958#864C5C11441AA17F
(1787136909.300428) can0 12A6695C#B2F941214EA5D499
(1787136909.300429) can0 12A66940#FC708730D7DBDEAA
(1787136909.300548) can0 12A66944#5B1D925AC63619FA
(1787136909.300550) can0 12A66948#F6CAEDE5444AB1DB
(1787136909.300664) can0 12A6694C#50336111C8D2171F
(1787136909.300665) can0 12A66950#D011C314DE9D2FE4
(1787136909.300785) can0 12A66954#696AB7E738388F1A
(1787136909.300786) can0 12A66958#EDF331D367DEDC9F
(1787136909.300926) can0 12A6695C#82B1F6EF50E935EB
(1787136909.300927) can0 12A66940#53A5C9E99170C724
(1787136909.301072) can0 12A66944#5968742DA9EE52D6
(1787136909.301074) can0 12A66948#8FE0C579939EEA84
(1787136909.301201) can0 12A6694C#C53E93C99A690CF2
(1787136909.301203) can0 12A66950#F5CD303A0C1DD052
(1787136909.305328) can0 12A66954#9AF9FD2555DC3AB0
(1787136909.305330) can0 12A66958#19BFCA179BCFCF09
(1787136909.305331) can0 12A6695C#2EC0A66A524FB165
(1787136909.305410) can0 12A66940#B8C06A4383F2C1FC
(1787136909.305411) can0 12A66944#103F5D944B177D14
(1787136909.305537) can0 12A66948#C2E5A6C10A5136BC
(1787136909.305538) can0 12A6694C#BD92903800700560
(1787136909.305700) can0 12A66950#C6C3C77D09CE32F5
(1787136909.305702) can0 12A66954#8CE04B00950E5F26
(1787136909.305824) can0 12A66958#D96F7AEDE61FBB6E
(1787136909.305826) can0 12A6695C#96036F7D8DC52272
(1787136909.305947) can0 12A66941#57DDFB4D
(1787136909.732294) can0 12A66962#54C49240181C0000
(1787136909.732296) can0 12A66964#0100000062D034E9
(1787136909.732448) can0 12A66968#23FB1418F135B1C2
(1787136909.732450) can0 12A6696C#4B5D1E7820B4837F
(1787136909.732451) can0 12A66970#3113F5DA7948E15B
(1787136909.732551) can0 12A66974#7BBB8255F8320D06
(1787136909.732669) can0 12A66978#F3066DCF86FE605C
(1787136909.732788) can0 12A6697C#EE3605FAFD097DFF
(1787136909.732789) can0 12A66960#16CE786EB9639947
(1787136909.732945) can0 12A66964#0625D22634611234
(1787136909.732947) can0 12A66968#FB60536584AD0E6E
(1787136909.733069) can0 12A6696C#2976079D2FA63AA2
(1787136909.733071) can0 12A66970#E8F730E50B66C728
(1787136909.733193) can0 12A66974#4446E7596A33D6D9
(1787136909.733195) can0 12A66978#7AA32EDF90343BA6
(1787136909.733279) can0 12A6697C#F47B830216C5937F
(1787136909.733405) can0 12A66960#39CA97716849B6E1
(1787136909.733406) can0 12A66964#7BF654A9D4A3C005
(1787136909.733530) can0 12A66968#8C05CEB3FC026DC3
(1787136909.733531) can0 12A6696C#080A2892B9B18C02
(1787136909.733706) can0 12A66970#6933362DFFFA1520
(1787136909.737540) can0 12A66974#3CDF580C28A3BB4D
(1787136909.737697) can0 12A66978#B46DACD9489DF10A
(1787136909.737700) can0 12A6697C#435F4F778E7FCDC3
(1787136909.737702) can0 12A66960#D1EF99D0A97C62F1
(1787136909.737826) can0 12A66964#C402004319829BF1
(1787136909.737828) can0 12A66968#51EC97723441A7DF
(1787136909.737945) can0 12A6696C#CD65722F3A7BF63A
(1787136909.738073) can0 12A66970#FE7641E50742398D
(1787136909.738075) can0 12A66974#B178A04153326499
(1787136909.738194) can0 12A66978#B424B22D665BC3D1
(1787136909.738196) can0 12A6697C#3373F85DC3823A73
(1787136909.738279) can0 12A66961#E28735CA
(1787136910.164536) can0 12A66902#54C49240101D0000
(1787136910.164669) can0 12A66904#0100000091F9C80F
(1787136910.164671) can0 12A66908#F39A4A1AB88017A3
(1787136910.164672) can0 12A6690C#EDDE3C13E2B93CB0
(1787136910.164775) can0 12A66910#28067354177997E0
(1787136910.164776) can0 12A66914#2E9B74A1FA62CFA4
(1787136910.165106) can0 12A66918#28778752D876A6E8
(1787136910.165109) can0 12A6691C#A81D66FAB1E8CCEE
(1787136910.165110) can0 12A66900#C481677717DF784C
(1787136910.165165) can0 12A66904#8B6B865259C9D3CF
(1787136910.165319) can0 12A66908#235E5C6476C34C37
(1787136910.165321) can0 12A6690C#37DAB16CA754AAAD
(1787136910.165442) can0 12A66910#5021B48B6DE1AAE2
(1787136910.165445) can0 12A66914#AFD9AEFAF1AE4A18
(1787136910.165568) can0 12A66918#E4AAC3481F30B1F5
(1787136910.165570) can0 12A6691C#ADE2A262024B4EDD
(1787136910.165692) can0 12A66900#3BF9732FAADBD0DB
(1787136910.165694) can0 12A66904#6D5A63972ACA05B9
(1787136910.165815) can0 12A66908#115462870591CE7E
(1787136910.165817) can0 12A6690C#4BFF0E69E02112ED
(1787136910.165905) can0 12A66910#54BDE51A0B624F2A
(1787136910.169775) can0 12A66914#0DF67F27D87CB34F
(1787136910.169904) can0 12A66918#738106393CA0C3C5
(1787136910.169905) can0 12A6691C#85640D1B64A67C9D
(1787136910.170027) can0 12A66900#63AC51EF9EF67D4C
(1787136910.170028) can0 12A66904#499A70527A1490FE
(1787136910.170150) can0 12A66908#2D326AB292A47BCA
(1787136910.170151) can0 12A6690C#1C254A71E07A8BAD
(1787136910.170275) can0 12A66910#6E1A33D4FCC57A3E
(1787136910.170276) can0 12A66914#16A4731DA05D28F8
(1787136910.170400) can0 12A66918#3DFA1989467F689E
(1787136910.170526) can0 12A6691C#4DC8C6929750BD76
(1787136910.170527) can0 12A66901#05D748D4
(1787136910.596774) can0 12A66922#54C49240081E0000
(1787136910.596775) can0 12A66924#010000000498354B
(1787136910.596928) can0 12A66928#52220CE03219BFEE
(1787136910.596929) can0 12A6692C#5B6D98CE8233C1D1
(1787136910.597058) can0 12A66930#B2BB8C60F276FD85
(1787136910.597058) can0 12A66934#87F06375D623FC39
(1787136910.597175) can0 12A66938#0F0B21866EDF720B
(1787136910.597176) can0 12A6693C#6F90A96A9833783C
(1787136910.597301) can0 12A66920#460B89140AC9B959
(1787136910.597302) can0 12A66924#DBCA09E586350A15
(1787136910.597423) can0 12A66928#28B75F5D1CFA85C2
(1787136910.597424) can0 12A6692C#E8C7E58EFC16E7EB
(1787136910.597550) can0 12A66930#218F4424FA2CE8FB
(1787136910.597550) can0 12A66934#AF861B3B23661A96
(1787136910.597644) can0 12A66938#7446A6CF250ACA31
(1787136910.597645) can0 12A6693C#0A476F8752C81DA2
(1787136910.597768) can0 12A66920#696826C277D671DE
(1787136910.597768) can0 12A66924#EC5F5B3FDC623B69
(1787136910.597893) can0 12A66928#F9A0831FCEDB308A
(1787136910.598018) can0 12A6692C#A7EB44ED29D08382
(1787136910.598019) can0 12A66930#FF688D7B9AFEFE2B
(1787136910.602050) can0 12A66934#CBCB5271BA25A49F
(1787136910.602053) can0 12A66938#B4478CD4E9D0812F
(1787136910.602188) can0 12A6693C#BA1A36F83055C983
(1787136910.602190) can0 12A66920#DC2D4BDB18786645
(1787136910.602313) can0 12A66924#945ED4E6E289E367
(1787136910.602315) can0 12A66928#D4A51067B7257B57
(1787136910.602440) can0 12A6692C#BC853AF061F0A7D2
(1787136910.602442) can0 12A66930#EE68A535E3494FF7
(1787136910.602443) can0 12A66934#A1C4D04B97177DCB
(1787136910.602537) can0 12A66938#789C8F78A02998E3
(1787136910.602663) can0 12A6693C#D441DCCC23AE77C6
(1787136910.602664) can0 12A66921#4C50E55A
(1787136911.029027) can0 12A66942#54C49240001F0000
(1787136911.029187) can0 12A66944#01000000ED03A2DF
(1787136911.029190) can0 12A66948#E6DBF5E11F749D29
(1787136911.029191) can0 12A6694C#167241FA6596E2D5
(1787136911.029283) can0 12A66950#12116C8D32947EB7
(1787136911.029285) can0 12A66954#AEEDF1E84C4FDA77
(1787136911.029562) can0 12A66958#597175889C581B52
(1787136911.029566) can0 12A6695C#6CB06C7EA5672181
(1787136911.029567) can0 12A66940#FDB157E090B8F239
(1787136911.029666) can0 12A66944#D1DBF5663EE4C1D7
(1787136911.029668) can0 12A66948#A7E825AE373F2B0E
(1787136911.029790) can0 12A6694C#2482BBB7762B44F8
(1787136911.029939) can0 12A66950#236399588129F387
(1787136911.030064) can0 12A66954#80275DF9161637A5
(1787136911.030066) can0 12A66958#681A403FF7761314
(1787136911.030145) can0 12A6695C#6DB70622C8E3D41C
(1787136911.030146) can0 12A66940#A61B7DB485BFB521
(1787136911.030269) can0 12A66944#D314FAD73A1500CA
(1787136911.030270) can0 12A66948#C0D589F67E357D3B
(1787136911.030400) can0 12A6694C#C70F510AB6371809
(1787136911.030401) can0 12A66950#003B59A55FAE7BF2
(1787136911.034451) can0 12A66954#C3D12A964F586D2E
(1787136911.034454) can0 12A66958#484974C1AE90BBA1
(1787136911.034455) can0 12A6695C#8EAF2F62EA6F5DB4
(1787136911.034526) can0 12A66940#0C2AFF4639C478C7
(1787136911.034527) can0 12A66944#E02EEAD6BE43B398
(1787136911.034684) can0 12A66948#31E8789DA852943C
(1787136911.034686) can0 12A6694C#7A65E59E599E32DA
(1787136911.034808) can0 12A66950#A32FB5387FA308F9
(1787136911.034810) can0 12A66954#3DEE363D2303058F
(1787136911.034934) can0 12A66958#9C605FDE9A71AF1B
(1787136911.034936) can0 12A6695C#1C6DDA6C451682FE
(1787136911.035057) can0 12A66941#9B65F6F1
(1787136911.461559) can0 12A66962#54C49240F81F0000
(1787136911.461561) can0 12A66964#010000004C560370
(1787136911.461649) can0 12A66968#01A98F39E4808021
(1787136911.461802) can0 12A6696C#DAE6B91E2CF99129
(1787136911.461804) can0 12A66970#6EBEEF5FABDBBF3F
(1787136911.461805) can0 12A66974#05759FC0BA6173EF
(1787136911.462052) can0 12A66978#47E74653CA965C3B
(1787136911.462054) can0 12A6697C#40CC3812185D8F45
(1787136911.462176) can0 12A66960#FC7F67DC49E6AC8D
(1787136911.462303) can0 12A66964#BF7F26089300A7BC
(1787136911.462305) can0 12A66968#7F8687B7C331B17B
(1787136911.462426) can0 12A6696C#343E36ECE742802F
(1787136911.462429) can0 12A66970#AB140779508F4973
(1787136911.462556) can0 12A66974#C6DE035B51A227CB
(1787136911.462558) can0 12A66978#E9D3A498EDEDAA38
(1787136911.462677) can0 12A6697C#45ADF728CD873088
(1787136911.462679) can0 12A66960#5D99B7BFD5F467C7
(1787136911.462802) can0 12A66964#9D5B57E4AABC72B4
(1787136911.462804) can0 12A66968#59C6435C125A5D9A
(1787136911.462932) can0 12A6696C#08CFE2B5E67B7927
(1787136911.462934) can0 12A66970#9793B0BEC553A5B6
(1787136911.466904) can0 12A66974#217226204A15746D
(1787136911.467014) can0 12A66978#8B076925B970A8B4
(1787136911.467016) can0 12A6697C#9AA035E59DC37E42
(1787136911.467137) can0 12A66960#CED11AC5F0E6AEC3
(1787136911.467138) can0 12A66964#DED09D7C2B017539
(1787136911.467263) can0 12A66968#C6E1AFAED5243CDD
(1787136911.467264) can0 12A6696C#3D50C06941FE5DAE
(1787136911.467387) can0 12A66970#C2DAD533058208DB
(1787136911.467389) can0 12A66974#9DCEAEE083C9A050
(1787136911.467513) can0 12A66978#CA8048DAE14A3220
(1787136911.467514) can0 12A6697C#50B3676ED233D993
(1787136911.467637) can0 12A66961#3BAF865A
(1787136911.893931) can0 12A66902#54C49240F0200000
(1787136911.894012) can0 12A66904#01000000B1F81A89
(1787136911.894013) can0 12A66908#766E32FCA372D781
(1787136911.894175) can0 12A6690C#1D28677D2A9E2169
(1787136911.894177) can0 12A66910#9C4546559D6EA96D
(1787136911.894306) can0 12A66914#0F1C8D8AECA9D875
(1787136911.894308) can0 12A66918#9F4C78A47D0C6715
(1787136911.894422) can0 12A6691C#B83AE670328E47BD
(1787136911.894547) can0 12A66900#52FD25D35A811581
(1787136911.894549) can0 12A66904#A99B6B3EB1644E8B
(1787136911.894673) can0 12A66908#2013365E1C55C040
(1787136911.894675) can0 12A6690C#06141DEA89AEC992
(1787136911.894761) can0 12A66910#D2F2254C55FEC549
(1787136911.894762) can0 12A66914#5A7DC8813B6B7C51
(1787136911.894900) can0 12A66918#BA235389577BCC2B
(1787136911.895009) can0 12A6691C#2EE24C53E921B7EE
(1787136911.895010) can0 12A66900#B8B42E7350E41E40
(1787136911.895134) can0 12A66904#580A6F4B861D94D8
(1787136911.895135) can0 12A66908#90867A54ED420C3C
(1787136911.895261) can0 12A6690C#507C80B6BAFB7357
(1787136911.895262) can0 12A66910#CC4027B4E25AFDA7
(1787136911.899303) can0 12A66914#A401C5676AE328FF
(1787136911.899306) can0 12A66918#9708E14F86980FAC
(1787136911.899386) can0 12A6691C#C2BE76A785034005
(1787136911.899387) can0 12A66900#7819516A483DFCDB
(1787136911.899511) can0 12A66904#4CDD0915C3920108
(1787136911.899512) can0 12A66908#B67864C672CA0678
(1787136911.899681) can0 12A6690C#3DB7BC2CE3187B1A
(1787136911.899683) can0 12A66910#141344D4F50BB335
(1787136911.899766) can0 12A66914#751206B7B0D7F189
(1787136911.899767) can0 12A66918#BAB2C725E3936DE0
(1787136911.899911) can0 12A6691C#927E278ED62EB35B
(1787136911.900054) can0 12A66901#B4279CCF
(1787136912.326305) can0 12A66922#54C49240E8210000
(1787136912.326308) can0 12A66924#010000009C08D72F
(1787136912.326381) can0 12A66928#0F059A736F09D33D
(1787136912.326516) can0 12A6692C#6A8983C2DF3C5369
(1787136912.326517) can0 12A66930#E307E90DEA1A580E
(1787136912.326644) can0 12A66934#72750C7A72AEB212
(1787136912.326646) can0 12A66938#8DA21DAE5C7770C9
(1787136912.326786) can0 12A6693C#75E186F0036DF242
(1787136912.326788) can0 12A66920#7BC49722770EC273
(1787136912.326885) can0 12A66924#0FD7072C5BCBA7EF
(1787136912.327048) can0 12A66928#18F23E90DDF575DA
(1787136912.327050) can0 12A6692C#14433410B0FBB3BA
(1787136912.327137) can0 12A66930#4C6952D6DF56A1A7
(1787136912.327139) can0 12A66934#5DDC4C23CF621067
(1787136912.327270) can0 12A66938#270E4EA525B12869
(1787136912.327272) can0 12A6693C#1A08A9DE0B28878D
(1787136912.327389) can0 12A66920#DA3177E4469471B0
(1787136912.327391) can0 12A66924#560100E6CC88D957
(1787136912.327506) can0 12A66928#38CB6C76191616FC
(1787136912.327507) can0 12A6692C#AF01DA1B25CAF808
(1787136912.327633) can0 12A66930#9A372D2A2CE21C31
(1787136912.331508) can0 12A66934#0A7E88C10FE0B45D
(1787136912.331636) can0 12A66938#005CA7817B62E3F9
(1787136912.331637) can0 12A6693C#BD17DEA45FCC4ACF
(1787136912.331756) can0 12A66920#45394CE5E07B68A6
(1787136912.331757) can0 12A66924#8FA990C13D2DDE41
(1787136912.331886) can0 12A66928#E934C1387A9F0374
(1787136912.331887) can0 12A6692C#DC6CF19E0D21CE14
(1787136912.332006) can0 12A66930#23F26F92B99AFCCE
(1787136912.332131) can0 12A66934#E08271E01E96D8FF
(1787136912.332132) can0 12A66938#F5E1A24C9F8D0B72
(1787136912.332255) can0 12A6693C#A1F6B2779214155E
(1787136912.332257) can0 12A66921#074D1DD3
(1787136912.758550) can0 12A66942#54C49240E0220000
(1787136912.758553) can0 12A66944#010000005D52CAE8
(1787136912.758627) can0 12A66948#CCD21982FAFB7CD2
(1787136912.758752) can0 12A6694C#2961DA5B5FFA2CF5
(1787136912.758753) can0 12A66950#D3FE70C62D388457
(1787136912.758755) can0 12A66954#C8457A9C3BE44126
(1787136912.759080) can0 12A66958#99606D9D25437B65
(1787136912.759083) can0 12A6695C#B39B302B33BC397E
(1787136912.759084) can0 12A66940#703841D713F56009
(1787136912.759165) can0 12A66944#D9F6C2ED54911A7A
(1787136912.759253) can0 12A66948#83A056928DA542FE
(1787136912.759383) can0 12A6694C#B288E3C508898224
(1787136912.759384) can0 12A66950#810F5B187C1C82AF
(1787136912.759547) can0 12A66954#119E063680F07504
(1787136912.759549) can0 12A66958#CBDEBC61E8B080C9
(1787136912.759550) can0 12A6695C#67EE269C956C081C
(1787136912.759627) can0 12A66940#9583C342AA11D745
(1787136912.759763) can0 12A66944#D47F201D694622CA
(1787136912.759764) can0 12A66948#91869754C9549573
(1787136912.759898) can0 12A6694C#BC59F934A492128E
(1787136912.759900) can0 12A66950#163895F2BC850F35
(1787136912.763924) can0 12A66954#4E009D06D466E58E
(1787136912.763926) can0 12A66958#6CCADDC0DB902AC3
(1787136912.764003) can0 12A6695C#E2643B9A026903FF
(1787136912.764131) can0 12A66940#62C55AEB2DB07F30
(1787136912.764132) can0 12A66944#58A57B3ACC1642B0
(1787136912.764299) can0 12A66948#2832C9F2BB783EC1
(1787136912.764300) can0 12A6694C#25EA182781D9694A
(1787136912.764382) can0 12A66950#DC34358E585178E1
(1787136912.764383) can0 12A66954#C793C8ABDEBFDBFF
(1787136912.764523) can0 12A66958#96655B8812CA96B4
(1787136912.764525) can0 12A6695C#54EBCE2742074BE9
(1787136912.764641) can0 12A66941#262B5F87
(1787136913.190919) can0 12A66962#54C49240D8230000
(1787136913.191000) can0 12A66964#01000000A9BB6072
(1787136913.191001) can0 12A66968#E49AA840224D5077
(1787136913.191133) can0 12A6696C#8B79D490CE4E7F65
(1787136913.191135) can0 12A66970#C9D55210C94608B4
(1787136913.191299) can0 12A66974#C952335FFFC46998
(1787136913.191373) can0 12A66978#2128614E3FA5C1B4
(1787136913.191374) can0 12A6697C#B8EB850FC4251EA4
(1787136913.191504) can0 12A66960#6D7A73C85E502D3A
(1787136913.191505) can0 12A66964#354939C57CDC8E37
(1787136913.191660) can0 12A66968#EEFAF8FF5EB75A88
(1787136913.191662) can0 12A6696C#6F8C0278D8301D97
(1787136913.191747) can0 12A66970#C00BD9384E03438C
(1787136913.191749) can0 12A66974#74D1800C595D39E0
(1787136913.191911) can0 12A66978#A3CA0E4FFBE1A66E
(1787136913.191913) can0 12A6697C#508ECE33747FF7A2
(1787136913.191998) can0 12A66960#261DE0EADFBE5830
(1787136913.192000) can0 12A66964#B9543CF60A272BC2
(1787136913.192166) can0 12A66968#A4B028A98153F90B
(1787136913.192168) can0 12A6696C#399D8B19226A2813
(1787136913.192249) can0 12A66970#16203A3947C18DAF
(1787136913.196128) can0 12A66974#07A719C6A10B757F
(1787136913.196250) can0 12A66978#38D653031DB7703D
(1787136913.196251) can0 12A6697C#8EA348C2A8B89835
(1787136913.196373) can0 12A66960#2BD84C9E622C12F3
(1787136913.196374) can0 12A66964#68DBD5467839C1C0
(1787136913.196497) can0 12A66968#CF9422527647010C
(1787136913.196498) can0 12A6696C#BF05ABDBD72C3FF8
(1787136913.196500) can0 12A66970#7450105D6513BFC0
(1787136913.196622) can0 12A66974#4CF3DB1A21B8E4A5
(1787136913.196623) can0 12A66978#868950AC5EBE1D38
(1787136913.196756) can0 12A6697C#0AD7D7E28432D1B9
(1787136913.196757) can0 12A66961#17EF8085
(1787136913.623170) can0 12A66902#54C49240D0240000
(1787136913.623257) can0 12A66904#01000000F1B80382
(1787136913.623259) can0 12A66908#41D5EA4D0908A7B2
(1787136913.623409) can0 12A6690C#89E74AB71BF5352B
(1787136913.623411) can0 12A66910#3F057EEB2A1E4374
(1787136913.623534) can0 12A66914#3C5DF24CDE015B17
(1787136913.623536) can0 12A66918#DA218076DF67EDA1
(1787136913.623662) can0 12A6691C#251DC1522A6EE6D7
(1787136913.623664) can0 12A66900#95614E1C1E8FBADA
(1787136913.623665) can0 12A66904#6ECF5599B53A5AD7
(1787136913.623787) can0 12A66908#3B1F5AF2B0578802
(1787136913.623790) can0 12A6690C#4BFABB0B9F2C67FE
(1787136913.623906) can0 12A66910#7F2FE49A11C3CF60
(1787136913.624031) can0 12A66914#4352B76F15642BF0
(1787136913.624033) can0 12A66918#2760F293C8D18314
(1787136913.624157) can0 12A6691C#83322426483FF802
(1787136913.624159) can0 12A66900#E4C4ED050F069F61
(1787136913.624288) can0 12A66904#399E21C293DAA431
(1787136913.624290) can0 12A66908#73F89169B52EB0D8
(1787136913.624410) can0 12A6690C#7F94CEFED2F8996D
(1787136913.624412) can0 12A66910#ED83AF626DAF2E50
(1787136913.628501) can0 12A66914#6AB38BEFB61B41AE
(1787136913.628503) can0 12A66918#CD2CBB56506E25DD
(1787136913.628504) can0 12A6691C#5AC6D6A41FF15D89
(1787136913.628633) can0 12A66900#F565DA6503317CAC
(1787136913.628634) can0 12A66904#8D13880DA8DB1F14
(1787136913.628786) can0 12A66908#5FC57A9280543ADB
(1787136913.628787) can0 12A6690C#9122EDF3972953EC
(1787136913.628906) can0 12A66910#B0EC550F5D42C14F
(1787136913.628908) can0 12A66914#226FE68F432FC525
(1787136913.629031) can0 12A66918#37C2946FA26706FD
(1787136913.629033) can0 12A6691C#22C8276B610C007A
(1787136913.629127) can0 12A66901#2EDCA8A2
(1787136914.055413) can0 12A66922#54C49240C8250000
(1787136914.055502) can0 12A66924#01000000DC606690
(1787136914.055504) can0 12A66928#80F4F302CF176335
(1787136914.055654) can0 12A6692C#A135C360D00F4BDA
(1787136914.055656) can0 12A66930#B5BAE482C906A8F5
(1787136914.055780) can0 12A66934#6BFD2F9105E95907
(1787136914.055782) can0 12A66938#D20809A9D6F1CCF0
(1787136914.055902) can0 12A6693C#F58BBE7EFA31387E
(1787136914.055904) can0 12A66920#604970E0208573BB
(1787136914.056026) can0 12A66924#DE69CC77A4C68816
(1787136914.056029) can0 12A66928#6C16E1A2BDB4B856
(1787136914.056153) can0 12A6692C#315EF73E167FB134
(1787136914.056155) can0 12A66930#A23901E9CB0A4C15
(1787136914.056277) can0 12A66934#69D61361109F8F31
(1787136914.056279) can0 12A66938#E79659675E3794BB
(1787136914.056401) can0 12A6693C#5A3777707084213E
(1787136914.056403) can0 12A66920#458680FBF8C8DC3E
(1787136914.056502) can0 12A66924#345133BE67E5A8A1
(1787136914.056503) can0 12A66928#3D96813641E29D52
(1787136914.056631) can0 12A6692C#A92B41EC55D6E1F2
(1787136914.056632) can0 12A66930#0376B94A1DEDB7CE
(1787136914.060760) can0 12A66934#EFF37C324EEB180C
(1787136914.060763) can0 12A66938#E0417A5F5344E758
(1787136914.060872) can0 12A6693C#77B9696616DF996F
(1787136914.060874) can0 12A66920#8737C7E9FD8A82F6
(1787136914.061003) can0 12A66924#98EAD5209763649C
(1787136914.061006) can0 12A66928#FE1B5CA1125D8903
(1787136914.061121) can0 12A6692C#5478B509CFA332A5
(1787136914.061122) can0 12A66930#3D8CAE9DD3F146FB
(1787136914.061243) can0 12A66934#7AD47484873A525B
(1787136914.061244) can0 12A66938#234F498AB2024EE7
(1787136914.061368) can0 12A6693C#E5CE4BC1BD283C64
(1787136914.061370) can0 12A66921#C29775E6
(1787136914.487782) can0 12A66942#54C49240C0260000
(1787136914.487785) can0 12A66944#0100000084BABA0C
(1787136914.487878) can0 12A66948#06A9BC353141747F
(1787136914.488025) can0 12A6694C#75864427FC2696E0
(1787136914.488027) can0 12A66950#F64FEDF62DA6BF6E
(1787136914.488148) can0 12A66954#5648BFC2725754B3
(1787136914.488278) can0 12A66958#0CD7D313DB89A14B
(1787136914.488280) can0 12A6695C#CB82159D51DEC8F5
(1787136914.488402) can0 12A66940#70BDE3FF93E19C19
(1787136914.488405) can0 12A66944#0E8CF48EAF2F82A4
(1787136914.488529) can0 12A66948#816B8E17A4C4F9B2
(1787136914.488648) can0 12A6694C#7EEC0E67AD56AD76
(1787136914.488650) can0 12A66950#25E75F3B5F953D27
(1787136914.488780) can0 12A66954#14188A354DC2F35F
(1787136914.488782) can0 12A66958#BD1B68E7153014C9
(1787136914.488897) can0 12A6695C#67525088A473A216
(1787136914.489022) can0 12A66940#09236BA6FAB664B5
(1787136914.489024) can0 12A66944#D9CE25F2C94F8820
(1787136914.489147) can0 12A66948#6214C670E5EDEC05
(1787136914.489279) can0 12A6694C#79DC795C81A34B5D
(1787136914.489280) can0 12A66950#BAF788F4956EB1E6
(1787136914.493024) can0 12A66954#A6E357ED87FAE346
(1787136914.493026) can0 12A66958#7E1C90AD4F514431
(1787136914.493147) can0 12A6695C#0AE0F20582C611E9
(1787136914.493149) can0 12A66940#DAA2B72CB8CF5CA1
(1787136914.493272) can0 12A66944#50444B2F7ED99038
(1787136914.493274) can0 12A66948#4282AD4427DFE6CD
(1787136914.493397) can0 12A6694C#870340E71D7E326F
(1787136914.493399) can0 12A66950#31996B78E922DA8B
(1787136914.493522) can0 12A66954#9E83CD8D96133D88
(1787136914.493524) can0 12A66958#631137628D68E3B1
(1787136914.493648) can0 12A6695C#0C35F884F99F48F3
(1787136914.493649) can0 12A66941#799B0CC4
(1787136914.920028) can0 12A66962#54C49240B8270000
(1787136914.920115) can0 12A66964#0100000054CD9F07
(1787136914.920117) can0 12A66968#B8CCAABD06C41DBC
(1787136914.920272) can0 12A6696C#B2FB23D926BFF250
(1787136914.920274) can0 12A66970#892B84CF981E0AB5
(1787136914.920276) can0 12A66974#B710F22B8C789A16
(1787136914.920519) can0 12A66978#75481F2BBD8DA79B
(1787136914.920521) can0 12A6697C#BD1663BA547F30DD
(1787136914.920522) can0 12A66960#DE2D70DFCADFF5F6
(1787136914.920644) can0 12A66964#A4C876FC0719FAAB
(1787136914.920646) can0 12A66968#0C283F0D2000C33B
(1787136914.920771) can0 12A6696C#8A482CA981BB3AC3
(1787136914.920773) can0 12A66970#03432D6B639D6808
(1787136914.920892) can0 12A66974#405402AC5A381A7E
(1787136914.921020) can0 12A66978#7E25340B69CE62D7
(1787136914.921022) can0 12A6697C#4C03C0B4649D5C37
(1787136914.921143) can0 12A66960#989EC537EC7812C6
(1787136914.921145) can0 12A66964#3C5A060000D46617
(1787136914.921270) can0 12A66968#0CF2B3F5CE99555E
(1787136914.921272) can0 12A6696C#02CD3C945E8EDA6B
(1787136914.921396) can0 12A66970#26DA30FAF232C2F5
(1787136914.925401) can0 12A66974#BF28BE45E7BB5CCD
(1787136914.925403) can0 12A66978#A1ACFFAB33672E06
(1787136914.925494) can0 12A6697C#AE2C40EF0F11FEDB
(1787136914.925496) can0 12A66960#502E57F53A627A83
(1787136914.925645) can0 12A66964#880081ED1EF3DCF4
(1787136914.925647) can0 12A66968#C3772A55219CDA24
(1787136914.925770) can0 12A6696C#C47DD50F328F8EF2
(1787136914.925772) can0 12A66970#6AFB1B4977FE65C0
(1787136914.925894) can0 12A66974#93E5134DE21C4D37
(1787136914.925896) can0 12A66978#720954350C022B5C
(1787136914.926018) can0 12A6697C#8283F0C190D207D2
(1787136914.926020) can0 12A66961#3E2023F5
(1787136915.352396) can0 12A66902#54C49240B0280000
(1787136915.352398) can0 12A66904#01000000995C0CBF
(1787136915.352490) can0 12A66908#9D693624E078D506
(1787136915.352492) can0 12A6690C#D0D62C0DC14A5AC0
(1787136915.352614) can0 12A66910#5C2D2FC68D00040A
(1787136915.352615) can0 12A66914#0C065F1A2DCFCC25
(1787136915.352724) can0 12A66918#32086F2F051B840C
(1787136915.352889) can0 12A6691C#3DEBC0D55D8C07A9
(1787136915.352891) can0 12A66900#68318204CFFC8BD0
(1787136915.353014) can0 12A66904#94D16E1367B4ADC4
(1787136915.353016) can0 12A66908#0238558A76656E8A
(1787136915.353139) can0 12A6690C#186AABB220A75346
(1787136915.353141) can0 12A66910#3E753C2098F89BA6
(1787136915.353226) can0 12A66914#8A9786EF828BADFC
(1787136915.353227) can0 12A66918#070E8FD8E52D4715
(1787136915.353350) can0 12A6691C#B9370D76D9B06831
(1787136915.353351) can0 12A66900#B40C346D68A73785
(1787136915.353475) can0 12A66904#466FC44662C37D1E
(1787136915.353476) can0 12A66908#10F55AC1ACCC0A58
(1787136915.353600) can0 12A6690C#7CF59A458CE2B153
(1787136915.353768) can0 12A66910#25596C89637B823C
(1787136915.357641) can0 12A66914#8E1165F1AE821FD2
(1787136915.357643) can0 12A66918#C5EE862308A978E9
(1787136915.357644) can0 12A6691C#5BA29FCD100DEB30
(1787136915.357764) can0 12A66900#D8EE00B6641F1F98
(1787136915.357766) can0 12A66904#80B9083DDD6A111A
(1787136915.357888) can0 12A66908#A9B7A5374B947D96
(1787136915.358014) can0 12A6690C#0FDC2DC36B28CC6A
(1787136915.358016) can0 12A66910#C2CF501CE71997AE
(1787136915.358139) can0 12A66914#4FF93A50BCD0B24D
(1787136915.358141) can0 12A66918#88DC5F0A24E5951B
(1787136915.358264) can0 12A6691C#FB5C15AD78FB9A23
(1787136915.358389) can0 12A66901#8FF39B1E
(1787136915.784644) can0 12A66922#54C49240A8290000
(1787136915.784646) can0 12A66924#010000005F8C6B09
(1787136915.784738) can0 12A66928#A3042F8C49272AEF
(1787136915.784739) can0 12A6692C#7E7DDC88589987DF
(1787136915.784887) can0 12A66930#85687C4077242613
(1787136915.785011) can0 12A66934#D158D4AD2FA0D4B1
(1787136915.785013) can0 12A66938#6E93184FA89D8827
(1787136915.785134) can0 12A6693C#ACB3AA1AC5D2C02F
(1787136915.785137) can0 12A66920#00D6EF10BE865335
(1787136915.785260) can0 12A66924#2C1217CD84C3DF63
(1787136915.785263) can0 12A66928#D7B074E3286FAFC0
(1787136915.785264) can0 12A6692C#9995FBE17A6610CF
(1787136915.785385) can0 12A66930#CB9FE382A6E2651C
(1787136915.785510) can0 12A66934#AC5700872501A2C4
(1787136915.785512) can0 12A66938#F6C9D573058DE82E
(1787136915.785634) can0 12A6693C#6E71D1618EF3E14A
(1787136915.785636) can0 12A66920#C64E041A16286352
(1787136915.785760) can0 12A66924#E0645F476E8F7585
(1787136915.785762) can0 12A66928#283810C02439A86F
(1787136915.785885) can0 12A6692C#6B20CFB48F57D76E
(1787136915.786014) can0 12A66930#DDBB27CEA8932E60
(1787136915.789854) can0 12A66934#BA4C881E3450F57C
(1787136915.789971) can0 12A66938#3035074109E0B17E
(1787136915.789972) can0 12A6693C#EFDF4C56B110FEAE
(1787136915.790101) can0 12A66920#261A3BBC4EC2A8D1
(1787136915.790102) can0 12A66924#0394EF3EA7F60499
(1787136915.790260) can0 12A66928#37F1EA2CF7FD27A0
(1787136915.790262) can0 12A6692C#CA8D93E9A46CCD14
(1787136915.790385) can0 12A66930#7F22B9B825D16FCB
(1787136915.790387) can0 12A66934#053FE0384643288E
(1787136915.790508) can0 12A66938#464BBE581345B8EB
(1787136915.790635) can0 12A6693C#4329FCBDBDEE70C1
(1787136915.790636) can0 12A66921#1DAAA11D
(1787136916.217018) can0 12A66942#54C49240A02A0000
(1787136916.217020) can0 12A66944#010000004CA1061F
(1787136916.217110) can0 12A66948#003F524E2D64C9E6
(1787136916.217112) can0 12A6694C#A01ED4F3C0925EA2
(1787136916.217264) can0 12A66950#E33DA6C50300B472
(1787136916.217266) can0 12A66954#5ACD90662289D543
(1787136916.217388) can0 12A66958#24FC4F243B5808F5
(1787136916.217390) can0 12A6695C#1B001B8007BFAA70
(1787136916.217510) can0 12A66940#1A3DB6A340393CF9
(1787136916.217512) can0 12A66944#61722AABBAD7FD00
(1787136916.217630) can0 12A66948#B4B56EC08929B212
(1787136916.217632) can0 12A6694C#11184C5724EC7359
(1787136916.217760) can0 12A66950#9A5D40ABDD190910
(1787136916.217762) can0 12A66954#E2DE6291472E946F
(1787136916.217880) can0 12A66958#CA7643FB8B1B8E45
(1787136916.218010) can0 12A6695C#6A7D745C28CEFDC4
(1787136916.218012) can0 12A66940#7A18BCDC6C96A896
(1787136916.218130) can0 12A66944#F77437CE9D4C93C4
(1787136916.218132) can0 12A66948#32954C539AD9EF44
(1787136916.218261) can0 12A6694C#00DE834CE7F9F309
(1787136916.218263) can0 12A66950#28F03DE6E0391E43
(1787136916.222266) can0 12A66954#1F45C9628C47AD8F
(1787136916.222268) can0 12A66958#2561631E2CF21BD4
(1787136916.222360) can0 12A6695C#A072A101D9979738
(1787136916.222509) can0 12A66940#B4C1C818B65F4CE2
(1787136916.222511) can0 12A66944#56BF72E8B353A161
(1787136916.222512) can0 12A66948#F312C196812751A8
(1787136916.222632) can0 12A6694C#313479217F231CEB
(1787136916.222634) can0 12A66950#7DB579A8813290A4
(1787136916.222756) can0 12A66954#96495E0834C9786A
(1787136916.222757) can0 12A66958#1EFC8B8113AC6798
(1787136916.222879) can0 12A6695C#C518F5335CD6ED91
(1787136916.223004) can0 12A66941#E59A0A91
(1787136916.649262) can0 12A66962#54C49240982B0000
(1787136916.649264) can0 12A66964#0100000034533212
(1787136916.649359) can0 12A66968#089AC89979384D80
(1787136916.649360) can0 12A6696C#A0CAA431A188F520
(1787136916.649504) can0 12A66970#919F304E32599B51
(1787136916.649507) can0 12A66974#15B980C02FE44D8A
(1787136916.649628) can0 12A66978#CD1F94BA98468702
(1787136916.649631) can0 12A6697C#7B5C280BFD0CB4C5
(1787136916.649632) can0 12A66960#6124D95E35E35EB6
(1787136916.649751) can0 12A66964#C35C2F1A2C42CDE8
(1787136916.649754) can0 12A66968#79FB14BEA14CB388
(1787136916.649876) can0 12A6696C#96C93BC469F0AFF9
(1787136916.650004) can0 12A66970#614D72AC8CD5CD66
(1787136916.650006) can0 12A66974#14BA8A8164C0863F
(1787136916.650127) can0 12A66978#A2831F8D7CA1A0C7
(1787136916.650129) can0 12A6697C#FD56167AD4022808
(1787136916.650252) can0 12A66960#6CBAC608A95EB8E9
(1787136916.650254) can0 12A66964#7687938F68DD12D6
(1787136916.650377) can0 12A66968#26C0F07535207834
(1787136916.650379) can0 12A6696C#B7140C8A19140CA6
(1787136916.650504) can0 12A66970#A0834E9BC895659A
(1787136916.654645) can0 12A66974#4C1CFF4575E760C1
(1787136916.654648) can0 12A66978#2E919D9BD8EB5AEA
(1787136916.654650) can0 12A6697C#D491FF460565DE3E
(1787136916.654724) can0 12A66960#039E874A85620FE7
(1787136916.654725) can0 12A66964#093EED2288E55A29
(1787136916.654881) can0 12A66968#AFA25431FC911D8F
(1787136916.655005) can0 12A6696C#82E77EFD4945B547
(1787136916.655007) can0 12A66970#38B7756423903AFE
(1787136916.655129) can0 12A66974#CE1B1F4263EEEC5A
(1787136916.655132) can0 12A66978#6071F7626D108A47
(1787136916.655255) can0 12A6697C#CECF8BCAF830E37C
(1787136916.655257) can0 12A66961#05E0C20C
(1787136917.081494) can0 12A66902#54C49240902C0000
(1787136917.081495) can0 12A66904#01000000BA0244C4
(1787136917.081609) can0 12A66908#10A9ED2B7E81CB15
(1787136917.081738) can0 12A6690C#AFF4E4EB85C016B0
(1787136917.081739) can0 12A66910#B752B350BBAE832E
(1787136917.081739) can0 12A66914#94EC6D516FFE079D
(1787136917.081867) can0 12A66918#2C3FAF65E8467A5C
(1787136917.082025) can0 12A6691C#F2964D5668E88768
(1787136917.082026) can0 12A66900#81B647981EEBFB2C
(1787136917.082027) can0 12A66904#9B2612728D1FEDE5
(1787136917.082118) can0 12A66908#92CEA60C09E6E8FB
(1787136917.082274) can0 12A6690C#D548A5C9D513DBC8
(1787136917.082275) can0 12A66910#606A3ADFADB63739
(1787136917.082276) can0 12A66914#5358468B8FC29C8C
(1787136917.082522) can0 12A66918#557BB4DE3DD2B0F8
(1787136917.082524) can0 12A6691C#17CDAF17D94B7E2E
(1787136917.082524) can0 12A66900#C9EB764FDC57FC1F
(1787136917.082525) can0 12A66904#8EE1865C0759CAC0
(1787136917.082618) can0 12A66908#3E92E343ACDEE2B9
(1787136917.082775) can0 12A6690C#65A05C4216D2C68E
(1787136917.082776) can0 12A66910#CFD3432F6A380DA9
(1787136917.086774) can0 12A66914#228AFA394CBA9EF3
(1787136917.086776) can0 12A66918#CF0BEB1A27521CF8
(1787136917.086777) can0 12A6691C#397B0481C543AD54
(1787136917.086777) can0 12A66900#7FEC79BA9760330E
(1787136917.086992) can0 12A66904#845C7F533F5461CA
(1787136917.086993) can0 12A66908#1888FF05A99261C1
(1787136917.087099) can0 12A6690C#D86928DE131A83D7
(1787136917.087100) can0 12A66910#C297BAEBA2BD1F8E
(1787136917.087242) can0 12A66914#7E9CCF9695A98248
(1787136917.087243) can0 12A66918#703BC67525EEEA8F
(1787136917.087373) can0 12A6691C#A31CDB998C30E1B0
(1787136917.087374) can0 12A66901#F2ABDCE1
(1787136917.513625) can0 12A66922#54C49240882D0000
(1787136917.513627) can0 12A66924#01000000A47417A2
(1787136917.513629) can0 12A66928#5F329F1B86A9DE42
(1787136917.513722) can0 12A6692C#724100B5FEEFC1D5
(1787136917.513871) can0 12A66930#FC9AB43D92C58964
(1787136917.513873) can0 12A66934#D5AE30BD49E7D632
(1787136917.513997) can0 12A66938#2F5BB73B23960DA0
(1787136917.513999) can0 12A6693C#C804074AF6CC9839
(1787136917.514119) can0 12A66920#4B6930D8EDF46186
(1787136917.514121) can0 12A66924#206EB8E8BD7C38FF
(1787136917.514242) can0 12A66928#AE528D919B19947A
(1787136917.514368) can0 12A6692C#25BE2D6B55F4341C
(1787136917.514371) can0 12A66930#3F6956ABAA712FFC
(1787136917.514493) can0 12A66934#D65165711C788448
(1787136917.514495) can0 12A66938#743E20D32E9BEF64
(1787136917.514496) can0 12A6693C#802DC7E7E892CB24
(1787136917.514617) can0 12A66920#BABE2466E1F973A0
(1787136917.514743) can0 12A66924#1DEBA3276E14E32B
(1787136917.514745) can0 12A66928#F929D7DC2075F0E1
(1787136917.514868) can0 12A6692C#0AE75A80F64E4646
(1787136917.514997) can0 12A66930#29EE4F59603CFBEE
(1787136917.519045) can0 12A66934#6FA3AC6F3B29F49F
(1787136917.519048) can0 12A66938#7438CC273C500AF7
(1787136917.519049) can0 12A6693C#6AF5160FC0EDBB8D
(1787136917.519104) can0 12A66920#55E55EFB86D3234B
(1787136917.519246) can0 12A66924#17B6427867149449
(1787136917.519248) can0 12A66928#6681FC9C75A9EDAD
(1787136917.519371) can0 12A6692C#7AD0998A2A6F7EDD
(1787136917.519373) can0 12A66930#091A8C6D060FC9A5
(1787136917.519495) can0 12A66934#ACADED788CC03B11
(1787136917.519497) can0 12A66938#79BDF8E6021573C0
(1787136917.519498) can0 12A6693C#114C48B521726897
(1787136917.519621) can0 12A66921#E2690264
(1787136917.946000) can0 12A66942#54C49240802E0000
(1787136917.946002) can0 12A66944#0100000010F4EF28
(1787136917.946093) can0 12A66948#3FBDC5EF9E99EC9F
(1787136917.946095) can0 12A6694C#40E6D1A95CCA8A1B
(1787136917.946247) can0 12A66950#8175B54DE62223B2
(1787136917.946249) can0 12A66954#3F565483DF3904B1
(1787136917.946372) can0 12A66958#AEA16423F44FE46D
(1787136917.946374) can0 12A6695C#BD6F5C9C26660058
(1787136917.946488) can0 12A66940#116130A1C9A764FF
(1787136917.946614) can0 12A66944#C6C3E9328889808D
(1787136917.946616) can0 12A66948#10AC720D55189B33
(1787136917.946739) can0 12A6694C#A10C431E6A20FE3F
(1787136917.946742) can0 12A66950#3589025DC5FEB0C7
(1787136917.946863) can0 12A66954#432C8ABD099E193F
(1787136917.946956) can0 12A66958#C09E02EB30698FC1
(1787136917.947113) can0 12A6695C#CED6D7D0C6E81C66
(1787136917.947115) can0 12A66940#D88BD9CA9DBF37E2
(1787136917.947239) can0 12A66944#0B52EA683BC30B23
(1787136917.947241) can0 12A66948#163289FA7DC3EE32
(1787136917.947369) can0 12A6694C#ED2DFD274FD50CDB
(1787136917.947371) can0 12A66950#6C707631ACAEF4CE
(1787136917.951249) can0 12A66954#7235CECBD609611E
(1787136917.951252) can0 12A66958#2D57F6FF5BE9A171
(1787136917.951343) can0 12A6695C#107E40C2AE38F57E
(1787136917.951491) can0 12A66940#B6746B7E27486F6E
(1787136917.951493) can0 12A66944#F925E9872FBD136C
(1787136917.951494) can0 12A66948#E3F868A30BBAC2E5
(1787136917.951616) can0 12A6694C#F133D265A8C36B71
(1787136917.951618) can0 12A66950#2AE678DB8FCF9261
(1787136917.951739) can0 12A66954#667D8688FAE82C34
(1787136917.951741) can0 12A66958#AC0989DEEFDA50E3
(1787136917.951863) can0 12A6695C#9E9FFF7D04143BB8
(1787136917.951988) can0 12A66941#2AB65ED1
(1787136918.378366) can0 12A66962#54C49240782F0000
(1787136918.378369) can0 12A66964#010000009742DE98
(1787136918.378370) can0 12A66968#BAD5B71C8CA00D6A
(1787136918.378464) can0 12A6696C#C492C7C9E8543450
(1787136918.378466) can0 12A66970#1589C8D4EFE1CCD2
(1787136918.378612) can0 12A66974#1BF556A7AB46ADA6
(1787136918.378736) can0 12A66978#1178BD150878278B
(1787136918.378738) can0 12A6697C#DF0D5EF46638EF1E
(1787136918.378859) can0 12A66960#2FEB4FF95278D8E6
